Begin System Initialization
Create Virtual Memory
Write Instructions to Memory
Fill ranges 0x400-0xBFF with random values
=====Memory contents before start of Simulation=====
***********************Memory Contents:***********************
Address 0x0: 0x07
Address 0x1: 0xa0
Address 0x2: 0x00
Address 0x3: 0x00
Address 0x4: 0x53
Address 0x5: 0x02
Address 0x6: 0x20
Address 0x7: 0x00
Address 0x8: 0x27
Address 0x9: 0x20
Address 0xa: 0x12
Address 0xb: 0x00
Address 0xc: 0x93
Address 0xd: 0x80
Address 0xe: 0x80
Address 0xf: 0xff
Address 0x10: 0x63
Address 0x11: 0x90
Address 0x12: 0x20
Address 0x13: 0x00
Address 0x14: 0x00
Address 0x15: 0x00
Address 0x16: 0x00
Address 0x17: 0x00
Address 0x18: 0x00
Address 0x19: 0x00
Address 0x1a: 0x00
Address 0x1b: 0x00
Address 0x1c: 0x00
Address 0x1d: 0x00
Address 0x1e: 0x00
Address 0x1f: 0x00
Address 0x20: 0x00
Address 0x21: 0x00
Address 0x22: 0x00
Address 0x23: 0x00
Address 0x24: 0x00
Address 0x25: 0x00
Address 0x26: 0x00
Address 0x27: 0x00
Address 0x28: 0x00
Address 0x29: 0x00
Address 0x2a: 0x00
Address 0x2b: 0x00
Address 0x2c: 0x00
Address 0x2d: 0x00
Address 0x2e: 0x00
Address 0x2f: 0x00
Address 0x30: 0x00
Address 0x31: 0x00
Address 0x32: 0x00
Address 0x33: 0x00
Address 0x34: 0x00
Address 0x35: 0x00
Address 0x36: 0x00
Address 0x37: 0x00
Address 0x38: 0x00
Address 0x39: 0x00
Address 0x3a: 0x00
Address 0x3b: 0x00
Address 0x3c: 0x00
Address 0x3d: 0x00
Address 0x3e: 0x00
Address 0x3f: 0x00
Address 0x40: 0x00
Address 0x41: 0x00
Address 0x42: 0x00
Address 0x43: 0x00
Address 0x44: 0x00
Address 0x45: 0x00
Address 0x46: 0x00
Address 0x47: 0x00
Address 0x48: 0x00
Address 0x49: 0x00
Address 0x4a: 0x00
Address 0x4b: 0x00
Address 0x4c: 0x00
Address 0x4d: 0x00
Address 0x4e: 0x00
Address 0x4f: 0x00
Address 0x50: 0x00
Address 0x51: 0x00
Address 0x52: 0x00
Address 0x53: 0x00
Address 0x54: 0x00
Address 0x55: 0x00
Address 0x56: 0x00
Address 0x57: 0x00
Address 0x58: 0x00
Address 0x59: 0x00
Address 0x5a: 0x00
Address 0x5b: 0x00
Address 0x5c: 0x00
Address 0x5d: 0x00
Address 0x5e: 0x00
Address 0x5f: 0x00
Address 0x60: 0x00
Address 0x61: 0x00
Address 0x62: 0x00
Address 0x63: 0x00
Address 0x64: 0x00
Address 0x65: 0x00
Address 0x66: 0x00
Address 0x67: 0x00
Address 0x68: 0x00
Address 0x69: 0x00
Address 0x6a: 0x00
Address 0x6b: 0x00
Address 0x6c: 0x00
Address 0x6d: 0x00
Address 0x6e: 0x00
Address 0x6f: 0x00
Address 0x70: 0x00
Address 0x71: 0x00
Address 0x72: 0x00
Address 0x73: 0x00
Address 0x74: 0x00
Address 0x75: 0x00
Address 0x76: 0x00
Address 0x77: 0x00
Address 0x78: 0x00
Address 0x79: 0x00
Address 0x7a: 0x00
Address 0x7b: 0x00
Address 0x7c: 0x00
Address 0x7d: 0x00
Address 0x7e: 0x00
Address 0x7f: 0x00
Address 0x80: 0x00
Address 0x81: 0x00
Address 0x82: 0x00
Address 0x83: 0x00
Address 0x84: 0x00
Address 0x85: 0x00
Address 0x86: 0x00
Address 0x87: 0x00
Address 0x88: 0x00
Address 0x89: 0x00
Address 0x8a: 0x00
Address 0x8b: 0x00
Address 0x8c: 0x00
Address 0x8d: 0x00
Address 0x8e: 0x00
Address 0x8f: 0x00
Address 0x90: 0x00
Address 0x91: 0x00
Address 0x92: 0x00
Address 0x93: 0x00
Address 0x94: 0x00
Address 0x95: 0x00
Address 0x96: 0x00
Address 0x97: 0x00
Address 0x98: 0x00
Address 0x99: 0x00
Address 0x9a: 0x00
Address 0x9b: 0x00
Address 0x9c: 0x00
Address 0x9d: 0x00
Address 0x9e: 0x00
Address 0x9f: 0x00
Address 0xa0: 0x00
Address 0xa1: 0x00
Address 0xa2: 0x00
Address 0xa3: 0x00
Address 0xa4: 0x00
Address 0xa5: 0x00
Address 0xa6: 0x00
Address 0xa7: 0x00
Address 0xa8: 0x00
Address 0xa9: 0x00
Address 0xaa: 0x00
Address 0xab: 0x00
Address 0xac: 0x00
Address 0xad: 0x00
Address 0xae: 0x00
Address 0xaf: 0x00
Address 0xb0: 0x00
Address 0xb1: 0x00
Address 0xb2: 0x00
Address 0xb3: 0x00
Address 0xb4: 0x00
Address 0xb5: 0x00
Address 0xb6: 0x00
Address 0xb7: 0x00
Address 0xb8: 0x00
Address 0xb9: 0x00
Address 0xba: 0x00
Address 0xbb: 0x00
Address 0xbc: 0x00
Address 0xbd: 0x00
Address 0xbe: 0x00
Address 0xbf: 0x00
Address 0xc0: 0x00
Address 0xc1: 0x00
Address 0xc2: 0x00
Address 0xc3: 0x00
Address 0xc4: 0x00
Address 0xc5: 0x00
Address 0xc6: 0x00
Address 0xc7: 0x00
Address 0xc8: 0x00
Address 0xc9: 0x00
Address 0xca: 0x00
Address 0xcb: 0x00
Address 0xcc: 0x00
Address 0xcd: 0x00
Address 0xce: 0x00
Address 0xcf: 0x00
Address 0xd0: 0x00
Address 0xd1: 0x00
Address 0xd2: 0x00
Address 0xd3: 0x00
Address 0xd4: 0x00
Address 0xd5: 0x00
Address 0xd6: 0x00
Address 0xd7: 0x00
Address 0xd8: 0x00
Address 0xd9: 0x00
Address 0xda: 0x00
Address 0xdb: 0x00
Address 0xdc: 0x00
Address 0xdd: 0x00
Address 0xde: 0x00
Address 0xdf: 0x00
Address 0xe0: 0x00
Address 0xe1: 0x00
Address 0xe2: 0x00
Address 0xe3: 0x00
Address 0xe4: 0x00
Address 0xe5: 0x00
Address 0xe6: 0x00
Address 0xe7: 0x00
Address 0xe8: 0x00
Address 0xe9: 0x00
Address 0xea: 0x00
Address 0xeb: 0x00
Address 0xec: 0x00
Address 0xed: 0x00
Address 0xee: 0x00
Address 0xef: 0x00
Address 0xf0: 0x00
Address 0xf1: 0x00
Address 0xf2: 0x00
Address 0xf3: 0x00
Address 0xf4: 0x00
Address 0xf5: 0x00
Address 0xf6: 0x00
Address 0xf7: 0x00
Address 0xf8: 0x00
Address 0xf9: 0x00
Address 0xfa: 0x00
Address 0xfb: 0x00
Address 0xfc: 0x00
Address 0xfd: 0x00
Address 0xfe: 0x00
Address 0xff: 0x00
Address 0x100: 0x00
Address 0x101: 0x00
Address 0x102: 0x00
Address 0x103: 0x00
Address 0x104: 0x00
Address 0x105: 0x00
Address 0x106: 0x00
Address 0x107: 0x00
Address 0x108: 0x00
Address 0x109: 0x00
Address 0x10a: 0x00
Address 0x10b: 0x00
Address 0x10c: 0x00
Address 0x10d: 0x00
Address 0x10e: 0x00
Address 0x10f: 0x00
Address 0x110: 0x00
Address 0x111: 0x00
Address 0x112: 0x00
Address 0x113: 0x00
Address 0x114: 0x00
Address 0x115: 0x00
Address 0x116: 0x00
Address 0x117: 0x00
Address 0x118: 0x00
Address 0x119: 0x00
Address 0x11a: 0x00
Address 0x11b: 0x00
Address 0x11c: 0x00
Address 0x11d: 0x00
Address 0x11e: 0x00
Address 0x11f: 0x00
Address 0x120: 0x00
Address 0x121: 0x00
Address 0x122: 0x00
Address 0x123: 0x00
Address 0x124: 0x00
Address 0x125: 0x00
Address 0x126: 0x00
Address 0x127: 0x00
Address 0x128: 0x00
Address 0x129: 0x00
Address 0x12a: 0x00
Address 0x12b: 0x00
Address 0x12c: 0x00
Address 0x12d: 0x00
Address 0x12e: 0x00
Address 0x12f: 0x00
Address 0x130: 0x00
Address 0x131: 0x00
Address 0x132: 0x00
Address 0x133: 0x00
Address 0x134: 0x00
Address 0x135: 0x00
Address 0x136: 0x00
Address 0x137: 0x00
Address 0x138: 0x00
Address 0x139: 0x00
Address 0x13a: 0x00
Address 0x13b: 0x00
Address 0x13c: 0x00
Address 0x13d: 0x00
Address 0x13e: 0x00
Address 0x13f: 0x00
Address 0x140: 0x00
Address 0x141: 0x00
Address 0x142: 0x00
Address 0x143: 0x00
Address 0x144: 0x00
Address 0x145: 0x00
Address 0x146: 0x00
Address 0x147: 0x00
Address 0x148: 0x00
Address 0x149: 0x00
Address 0x14a: 0x00
Address 0x14b: 0x00
Address 0x14c: 0x00
Address 0x14d: 0x00
Address 0x14e: 0x00
Address 0x14f: 0x00
Address 0x150: 0x00
Address 0x151: 0x00
Address 0x152: 0x00
Address 0x153: 0x00
Address 0x154: 0x00
Address 0x155: 0x00
Address 0x156: 0x00
Address 0x157: 0x00
Address 0x158: 0x00
Address 0x159: 0x00
Address 0x15a: 0x00
Address 0x15b: 0x00
Address 0x15c: 0x00
Address 0x15d: 0x00
Address 0x15e: 0x00
Address 0x15f: 0x00
Address 0x160: 0x00
Address 0x161: 0x00
Address 0x162: 0x00
Address 0x163: 0x00
Address 0x164: 0x00
Address 0x165: 0x00
Address 0x166: 0x00
Address 0x167: 0x00
Address 0x168: 0x00
Address 0x169: 0x00
Address 0x16a: 0x00
Address 0x16b: 0x00
Address 0x16c: 0x00
Address 0x16d: 0x00
Address 0x16e: 0x00
Address 0x16f: 0x00
Address 0x170: 0x00
Address 0x171: 0x00
Address 0x172: 0x00
Address 0x173: 0x00
Address 0x174: 0x00
Address 0x175: 0x00
Address 0x176: 0x00
Address 0x177: 0x00
Address 0x178: 0x00
Address 0x179: 0x00
Address 0x17a: 0x00
Address 0x17b: 0x00
Address 0x17c: 0x00
Address 0x17d: 0x00
Address 0x17e: 0x00
Address 0x17f: 0x00
Address 0x180: 0x00
Address 0x181: 0x00
Address 0x182: 0x00
Address 0x183: 0x00
Address 0x184: 0x00
Address 0x185: 0x00
Address 0x186: 0x00
Address 0x187: 0x00
Address 0x188: 0x00
Address 0x189: 0x00
Address 0x18a: 0x00
Address 0x18b: 0x00
Address 0x18c: 0x00
Address 0x18d: 0x00
Address 0x18e: 0x00
Address 0x18f: 0x00
Address 0x190: 0x00
Address 0x191: 0x00
Address 0x192: 0x00
Address 0x193: 0x00
Address 0x194: 0x00
Address 0x195: 0x00
Address 0x196: 0x00
Address 0x197: 0x00
Address 0x198: 0x00
Address 0x199: 0x00
Address 0x19a: 0x00
Address 0x19b: 0x00
Address 0x19c: 0x00
Address 0x19d: 0x00
Address 0x19e: 0x00
Address 0x19f: 0x00
Address 0x1a0: 0x00
Address 0x1a1: 0x00
Address 0x1a2: 0x00
Address 0x1a3: 0x00
Address 0x1a4: 0x00
Address 0x1a5: 0x00
Address 0x1a6: 0x00
Address 0x1a7: 0x00
Address 0x1a8: 0x00
Address 0x1a9: 0x00
Address 0x1aa: 0x00
Address 0x1ab: 0x00
Address 0x1ac: 0x00
Address 0x1ad: 0x00
Address 0x1ae: 0x00
Address 0x1af: 0x00
Address 0x1b0: 0x00
Address 0x1b1: 0x00
Address 0x1b2: 0x00
Address 0x1b3: 0x00
Address 0x1b4: 0x00
Address 0x1b5: 0x00
Address 0x1b6: 0x00
Address 0x1b7: 0x00
Address 0x1b8: 0x00
Address 0x1b9: 0x00
Address 0x1ba: 0x00
Address 0x1bb: 0x00
Address 0x1bc: 0x00
Address 0x1bd: 0x00
Address 0x1be: 0x00
Address 0x1bf: 0x00
Address 0x1c0: 0x00
Address 0x1c1: 0x00
Address 0x1c2: 0x00
Address 0x1c3: 0x00
Address 0x1c4: 0x00
Address 0x1c5: 0x00
Address 0x1c6: 0x00
Address 0x1c7: 0x00
Address 0x1c8: 0x00
Address 0x1c9: 0x00
Address 0x1ca: 0x00
Address 0x1cb: 0x00
Address 0x1cc: 0x00
Address 0x1cd: 0x00
Address 0x1ce: 0x00
Address 0x1cf: 0x00
Address 0x1d0: 0x00
Address 0x1d1: 0x00
Address 0x1d2: 0x00
Address 0x1d3: 0x00
Address 0x1d4: 0x00
Address 0x1d5: 0x00
Address 0x1d6: 0x00
Address 0x1d7: 0x00
Address 0x1d8: 0x00
Address 0x1d9: 0x00
Address 0x1da: 0x00
Address 0x1db: 0x00
Address 0x1dc: 0x00
Address 0x1dd: 0x00
Address 0x1de: 0x00
Address 0x1df: 0x00
Address 0x1e0: 0x00
Address 0x1e1: 0x00
Address 0x1e2: 0x00
Address 0x1e3: 0x00
Address 0x1e4: 0x00
Address 0x1e5: 0x00
Address 0x1e6: 0x00
Address 0x1e7: 0x00
Address 0x1e8: 0x00
Address 0x1e9: 0x00
Address 0x1ea: 0x00
Address 0x1eb: 0x00
Address 0x1ec: 0x00
Address 0x1ed: 0x00
Address 0x1ee: 0x00
Address 0x1ef: 0x00
Address 0x1f0: 0x00
Address 0x1f1: 0x00
Address 0x1f2: 0x00
Address 0x1f3: 0x00
Address 0x1f4: 0x00
Address 0x1f5: 0x00
Address 0x1f6: 0x00
Address 0x1f7: 0x00
Address 0x1f8: 0x00
Address 0x1f9: 0x00
Address 0x1fa: 0x00
Address 0x1fb: 0x00
Address 0x1fc: 0x00
Address 0x1fd: 0x00
Address 0x1fe: 0x00
Address 0x1ff: 0x00
Address 0x200: 0x00
Address 0x201: 0x00
Address 0x202: 0x00
Address 0x203: 0x00
Address 0x204: 0x00
Address 0x205: 0x00
Address 0x206: 0x00
Address 0x207: 0x00
Address 0x208: 0x00
Address 0x209: 0x00
Address 0x20a: 0x00
Address 0x20b: 0x00
Address 0x20c: 0x00
Address 0x20d: 0x00
Address 0x20e: 0x00
Address 0x20f: 0x00
Address 0x210: 0x00
Address 0x211: 0x00
Address 0x212: 0x00
Address 0x213: 0x00
Address 0x214: 0x00
Address 0x215: 0x00
Address 0x216: 0x00
Address 0x217: 0x00
Address 0x218: 0x00
Address 0x219: 0x00
Address 0x21a: 0x00
Address 0x21b: 0x00
Address 0x21c: 0x00
Address 0x21d: 0x00
Address 0x21e: 0x00
Address 0x21f: 0x00
Address 0x220: 0x00
Address 0x221: 0x00
Address 0x222: 0x00
Address 0x223: 0x00
Address 0x224: 0x00
Address 0x225: 0x00
Address 0x226: 0x00
Address 0x227: 0x00
Address 0x228: 0x00
Address 0x229: 0x00
Address 0x22a: 0x00
Address 0x22b: 0x00
Address 0x22c: 0x00
Address 0x22d: 0x00
Address 0x22e: 0x00
Address 0x22f: 0x00
Address 0x230: 0x00
Address 0x231: 0x00
Address 0x232: 0x00
Address 0x233: 0x00
Address 0x234: 0x00
Address 0x235: 0x00
Address 0x236: 0x00
Address 0x237: 0x00
Address 0x238: 0x00
Address 0x239: 0x00
Address 0x23a: 0x00
Address 0x23b: 0x00
Address 0x23c: 0x00
Address 0x23d: 0x00
Address 0x23e: 0x00
Address 0x23f: 0x00
Address 0x240: 0x00
Address 0x241: 0x00
Address 0x242: 0x00
Address 0x243: 0x00
Address 0x244: 0x00
Address 0x245: 0x00
Address 0x246: 0x00
Address 0x247: 0x00
Address 0x248: 0x00
Address 0x249: 0x00
Address 0x24a: 0x00
Address 0x24b: 0x00
Address 0x24c: 0x00
Address 0x24d: 0x00
Address 0x24e: 0x00
Address 0x24f: 0x00
Address 0x250: 0x00
Address 0x251: 0x00
Address 0x252: 0x00
Address 0x253: 0x00
Address 0x254: 0x00
Address 0x255: 0x00
Address 0x256: 0x00
Address 0x257: 0x00
Address 0x258: 0x00
Address 0x259: 0x00
Address 0x25a: 0x00
Address 0x25b: 0x00
Address 0x25c: 0x00
Address 0x25d: 0x00
Address 0x25e: 0x00
Address 0x25f: 0x00
Address 0x260: 0x00
Address 0x261: 0x00
Address 0x262: 0x00
Address 0x263: 0x00
Address 0x264: 0x00
Address 0x265: 0x00
Address 0x266: 0x00
Address 0x267: 0x00
Address 0x268: 0x00
Address 0x269: 0x00
Address 0x26a: 0x00
Address 0x26b: 0x00
Address 0x26c: 0x00
Address 0x26d: 0x00
Address 0x26e: 0x00
Address 0x26f: 0x00
Address 0x270: 0x00
Address 0x271: 0x00
Address 0x272: 0x00
Address 0x273: 0x00
Address 0x274: 0x00
Address 0x275: 0x00
Address 0x276: 0x00
Address 0x277: 0x00
Address 0x278: 0x00
Address 0x279: 0x00
Address 0x27a: 0x00
Address 0x27b: 0x00
Address 0x27c: 0x00
Address 0x27d: 0x00
Address 0x27e: 0x00
Address 0x27f: 0x00
Address 0x280: 0x00
Address 0x281: 0x00
Address 0x282: 0x00
Address 0x283: 0x00
Address 0x284: 0x00
Address 0x285: 0x00
Address 0x286: 0x00
Address 0x287: 0x00
Address 0x288: 0x00
Address 0x289: 0x00
Address 0x28a: 0x00
Address 0x28b: 0x00
Address 0x28c: 0x00
Address 0x28d: 0x00
Address 0x28e: 0x00
Address 0x28f: 0x00
Address 0x290: 0x00
Address 0x291: 0x00
Address 0x292: 0x00
Address 0x293: 0x00
Address 0x294: 0x00
Address 0x295: 0x00
Address 0x296: 0x00
Address 0x297: 0x00
Address 0x298: 0x00
Address 0x299: 0x00
Address 0x29a: 0x00
Address 0x29b: 0x00
Address 0x29c: 0x00
Address 0x29d: 0x00
Address 0x29e: 0x00
Address 0x29f: 0x00
Address 0x2a0: 0x00
Address 0x2a1: 0x00
Address 0x2a2: 0x00
Address 0x2a3: 0x00
Address 0x2a4: 0x00
Address 0x2a5: 0x00
Address 0x2a6: 0x00
Address 0x2a7: 0x00
Address 0x2a8: 0x00
Address 0x2a9: 0x00
Address 0x2aa: 0x00
Address 0x2ab: 0x00
Address 0x2ac: 0x00
Address 0x2ad: 0x00
Address 0x2ae: 0x00
Address 0x2af: 0x00
Address 0x2b0: 0x00
Address 0x2b1: 0x00
Address 0x2b2: 0x00
Address 0x2b3: 0x00
Address 0x2b4: 0x00
Address 0x2b5: 0x00
Address 0x2b6: 0x00
Address 0x2b7: 0x00
Address 0x2b8: 0x00
Address 0x2b9: 0x00
Address 0x2ba: 0x00
Address 0x2bb: 0x00
Address 0x2bc: 0x00
Address 0x2bd: 0x00
Address 0x2be: 0x00
Address 0x2bf: 0x00
Address 0x2c0: 0x00
Address 0x2c1: 0x00
Address 0x2c2: 0x00
Address 0x2c3: 0x00
Address 0x2c4: 0x00
Address 0x2c5: 0x00
Address 0x2c6: 0x00
Address 0x2c7: 0x00
Address 0x2c8: 0x00
Address 0x2c9: 0x00
Address 0x2ca: 0x00
Address 0x2cb: 0x00
Address 0x2cc: 0x00
Address 0x2cd: 0x00
Address 0x2ce: 0x00
Address 0x2cf: 0x00
Address 0x2d0: 0x00
Address 0x2d1: 0x00
Address 0x2d2: 0x00
Address 0x2d3: 0x00
Address 0x2d4: 0x00
Address 0x2d5: 0x00
Address 0x2d6: 0x00
Address 0x2d7: 0x00
Address 0x2d8: 0x00
Address 0x2d9: 0x00
Address 0x2da: 0x00
Address 0x2db: 0x00
Address 0x2dc: 0x00
Address 0x2dd: 0x00
Address 0x2de: 0x00
Address 0x2df: 0x00
Address 0x2e0: 0x00
Address 0x2e1: 0x00
Address 0x2e2: 0x00
Address 0x2e3: 0x00
Address 0x2e4: 0x00
Address 0x2e5: 0x00
Address 0x2e6: 0x00
Address 0x2e7: 0x00
Address 0x2e8: 0x00
Address 0x2e9: 0x00
Address 0x2ea: 0x00
Address 0x2eb: 0x00
Address 0x2ec: 0x00
Address 0x2ed: 0x00
Address 0x2ee: 0x00
Address 0x2ef: 0x00
Address 0x2f0: 0x00
Address 0x2f1: 0x00
Address 0x2f2: 0x00
Address 0x2f3: 0x00
Address 0x2f4: 0x00
Address 0x2f5: 0x00
Address 0x2f6: 0x00
Address 0x2f7: 0x00
Address 0x2f8: 0x00
Address 0x2f9: 0x00
Address 0x2fa: 0x00
Address 0x2fb: 0x00
Address 0x2fc: 0x00
Address 0x2fd: 0x00
Address 0x2fe: 0x00
Address 0x2ff: 0x00
Address 0x300: 0x00
Address 0x301: 0x00
Address 0x302: 0x00
Address 0x303: 0x00
Address 0x304: 0x00
Address 0x305: 0x00
Address 0x306: 0x00
Address 0x307: 0x00
Address 0x308: 0x00
Address 0x309: 0x00
Address 0x30a: 0x00
Address 0x30b: 0x00
Address 0x30c: 0x00
Address 0x30d: 0x00
Address 0x30e: 0x00
Address 0x30f: 0x00
Address 0x310: 0x00
Address 0x311: 0x00
Address 0x312: 0x00
Address 0x313: 0x00
Address 0x314: 0x00
Address 0x315: 0x00
Address 0x316: 0x00
Address 0x317: 0x00
Address 0x318: 0x00
Address 0x319: 0x00
Address 0x31a: 0x00
Address 0x31b: 0x00
Address 0x31c: 0x00
Address 0x31d: 0x00
Address 0x31e: 0x00
Address 0x31f: 0x00
Address 0x320: 0x00
Address 0x321: 0x00
Address 0x322: 0x00
Address 0x323: 0x00
Address 0x324: 0x00
Address 0x325: 0x00
Address 0x326: 0x00
Address 0x327: 0x00
Address 0x328: 0x00
Address 0x329: 0x00
Address 0x32a: 0x00
Address 0x32b: 0x00
Address 0x32c: 0x00
Address 0x32d: 0x00
Address 0x32e: 0x00
Address 0x32f: 0x00
Address 0x330: 0x00
Address 0x331: 0x00
Address 0x332: 0x00
Address 0x333: 0x00
Address 0x334: 0x00
Address 0x335: 0x00
Address 0x336: 0x00
Address 0x337: 0x00
Address 0x338: 0x00
Address 0x339: 0x00
Address 0x33a: 0x00
Address 0x33b: 0x00
Address 0x33c: 0x00
Address 0x33d: 0x00
Address 0x33e: 0x00
Address 0x33f: 0x00
Address 0x340: 0x00
Address 0x341: 0x00
Address 0x342: 0x00
Address 0x343: 0x00
Address 0x344: 0x00
Address 0x345: 0x00
Address 0x346: 0x00
Address 0x347: 0x00
Address 0x348: 0x00
Address 0x349: 0x00
Address 0x34a: 0x00
Address 0x34b: 0x00
Address 0x34c: 0x00
Address 0x34d: 0x00
Address 0x34e: 0x00
Address 0x34f: 0x00
Address 0x350: 0x00
Address 0x351: 0x00
Address 0x352: 0x00
Address 0x353: 0x00
Address 0x354: 0x00
Address 0x355: 0x00
Address 0x356: 0x00
Address 0x357: 0x00
Address 0x358: 0x00
Address 0x359: 0x00
Address 0x35a: 0x00
Address 0x35b: 0x00
Address 0x35c: 0x00
Address 0x35d: 0x00
Address 0x35e: 0x00
Address 0x35f: 0x00
Address 0x360: 0x00
Address 0x361: 0x00
Address 0x362: 0x00
Address 0x363: 0x00
Address 0x364: 0x00
Address 0x365: 0x00
Address 0x366: 0x00
Address 0x367: 0x00
Address 0x368: 0x00
Address 0x369: 0x00
Address 0x36a: 0x00
Address 0x36b: 0x00
Address 0x36c: 0x00
Address 0x36d: 0x00
Address 0x36e: 0x00
Address 0x36f: 0x00
Address 0x370: 0x00
Address 0x371: 0x00
Address 0x372: 0x00
Address 0x373: 0x00
Address 0x374: 0x00
Address 0x375: 0x00
Address 0x376: 0x00
Address 0x377: 0x00
Address 0x378: 0x00
Address 0x379: 0x00
Address 0x37a: 0x00
Address 0x37b: 0x00
Address 0x37c: 0x00
Address 0x37d: 0x00
Address 0x37e: 0x00
Address 0x37f: 0x00
Address 0x380: 0x00
Address 0x381: 0x00
Address 0x382: 0x00
Address 0x383: 0x00
Address 0x384: 0x00
Address 0x385: 0x00
Address 0x386: 0x00
Address 0x387: 0x00
Address 0x388: 0x00
Address 0x389: 0x00
Address 0x38a: 0x00
Address 0x38b: 0x00
Address 0x38c: 0x00
Address 0x38d: 0x00
Address 0x38e: 0x00
Address 0x38f: 0x00
Address 0x390: 0x00
Address 0x391: 0x00
Address 0x392: 0x00
Address 0x393: 0x00
Address 0x394: 0x00
Address 0x395: 0x00
Address 0x396: 0x00
Address 0x397: 0x00
Address 0x398: 0x00
Address 0x399: 0x00
Address 0x39a: 0x00
Address 0x39b: 0x00
Address 0x39c: 0x00
Address 0x39d: 0x00
Address 0x39e: 0x00
Address 0x39f: 0x00
Address 0x3a0: 0x00
Address 0x3a1: 0x00
Address 0x3a2: 0x00
Address 0x3a3: 0x00
Address 0x3a4: 0x00
Address 0x3a5: 0x00
Address 0x3a6: 0x00
Address 0x3a7: 0x00
Address 0x3a8: 0x00
Address 0x3a9: 0x00
Address 0x3aa: 0x00
Address 0x3ab: 0x00
Address 0x3ac: 0x00
Address 0x3ad: 0x00
Address 0x3ae: 0x00
Address 0x3af: 0x00
Address 0x3b0: 0x00
Address 0x3b1: 0x00
Address 0x3b2: 0x00
Address 0x3b3: 0x00
Address 0x3b4: 0x00
Address 0x3b5: 0x00
Address 0x3b6: 0x00
Address 0x3b7: 0x00
Address 0x3b8: 0x00
Address 0x3b9: 0x00
Address 0x3ba: 0x00
Address 0x3bb: 0x00
Address 0x3bc: 0x00
Address 0x3bd: 0x00
Address 0x3be: 0x00
Address 0x3bf: 0x00
Address 0x3c0: 0x00
Address 0x3c1: 0x00
Address 0x3c2: 0x00
Address 0x3c3: 0x00
Address 0x3c4: 0x00
Address 0x3c5: 0x00
Address 0x3c6: 0x00
Address 0x3c7: 0x00
Address 0x3c8: 0x00
Address 0x3c9: 0x00
Address 0x3ca: 0x00
Address 0x3cb: 0x00
Address 0x3cc: 0x00
Address 0x3cd: 0x00
Address 0x3ce: 0x00
Address 0x3cf: 0x00
Address 0x3d0: 0x00
Address 0x3d1: 0x00
Address 0x3d2: 0x00
Address 0x3d3: 0x00
Address 0x3d4: 0x00
Address 0x3d5: 0x00
Address 0x3d6: 0x00
Address 0x3d7: 0x00
Address 0x3d8: 0x00
Address 0x3d9: 0x00
Address 0x3da: 0x00
Address 0x3db: 0x00
Address 0x3dc: 0x00
Address 0x3dd: 0x00
Address 0x3de: 0x00
Address 0x3df: 0x00
Address 0x3e0: 0x00
Address 0x3e1: 0x00
Address 0x3e2: 0x00
Address 0x3e3: 0x00
Address 0x3e4: 0x00
Address 0x3e5: 0x00
Address 0x3e6: 0x00
Address 0x3e7: 0x00
Address 0x3e8: 0x00
Address 0x3e9: 0x00
Address 0x3ea: 0x00
Address 0x3eb: 0x00
Address 0x3ec: 0x00
Address 0x3ed: 0x00
Address 0x3ee: 0x00
Address 0x3ef: 0x00
Address 0x3f0: 0x00
Address 0x3f1: 0x00
Address 0x3f2: 0x00
Address 0x3f3: 0x00
Address 0x3f4: 0x00
Address 0x3f5: 0x00
Address 0x3f6: 0x00
Address 0x3f7: 0x00
Address 0x3f8: 0x00
Address 0x3f9: 0x00
Address 0x3fa: 0x00
Address 0x3fb: 0x00
Address 0x3fc: 0x00
Address 0x3fd: 0x00
Address 0x3fe: 0x00
Address 0x3ff: 0x00
Address 0x400: 0x49
Address 0x401: 0xe9
Address 0x402: 0x1f
Address 0x403: 0xea
Address 0x404: 0xaa
Address 0x405: 0x6f
Address 0x406: 0x96
Address 0x407: 0xe6
Address 0x408: 0xfe
Address 0x409: 0x0a
Address 0x40a: 0x3c
Address 0x40b: 0x3f
Address 0x40c: 0x30
Address 0x40d: 0xe9
Address 0x40e: 0xef
Address 0x40f: 0xbc
Address 0x410: 0x33
Address 0x411: 0xcb
Address 0x412: 0xcc
Address 0x413: 0xbe
Address 0x414: 0x64
Address 0x415: 0x47
Address 0x416: 0x3b
Address 0x417: 0x57
Address 0x418: 0x87
Address 0x419: 0xf0
Address 0x41a: 0x28
Address 0x41b: 0x68
Address 0x41c: 0x1b
Address 0x41d: 0x60
Address 0x41e: 0x1f
Address 0x41f: 0xa7
Address 0x420: 0x95
Address 0x421: 0xcc
Address 0x422: 0xcd
Address 0x423: 0x89
Address 0x424: 0x41
Address 0x425: 0x6b
Address 0x426: 0xa6
Address 0x427: 0xc9
Address 0x428: 0x36
Address 0x429: 0xb1
Address 0x42a: 0xc9
Address 0x42b: 0x02
Address 0x42c: 0xb5
Address 0x42d: 0xe9
Address 0x42e: 0xd4
Address 0x42f: 0x74
Address 0x430: 0x46
Address 0x431: 0x93
Address 0x432: 0xf7
Address 0x433: 0xe0
Address 0x434: 0x98
Address 0x435: 0xe7
Address 0x436: 0x31
Address 0x437: 0x94
Address 0x438: 0xfd
Address 0x439: 0x43
Address 0x43a: 0x81
Address 0x43b: 0x98
Address 0x43c: 0x90
Address 0x43d: 0x3c
Address 0x43e: 0x0f
Address 0x43f: 0x73
Address 0x440: 0x60
Address 0x441: 0x29
Address 0x442: 0x8e
Address 0x443: 0xab
Address 0x444: 0xf4
Address 0x445: 0xed
Address 0x446: 0x9f
Address 0x447: 0xc9
Address 0x448: 0xce
Address 0x449: 0x0e
Address 0x44a: 0x1b
Address 0x44b: 0xc6
Address 0x44c: 0x1b
Address 0x44d: 0x54
Address 0x44e: 0x6b
Address 0x44f: 0xc9
Address 0x450: 0xb7
Address 0x451: 0x63
Address 0x452: 0xa7
Address 0x453: 0xe8
Address 0x454: 0x6c
Address 0x455: 0x9e
Address 0x456: 0x01
Address 0x457: 0x49
Address 0x458: 0x5b
Address 0x459: 0x65
Address 0x45a: 0xbb
Address 0x45b: 0x8a
Address 0x45c: 0xe9
Address 0x45d: 0x3b
Address 0x45e: 0x2c
Address 0x45f: 0xc1
Address 0x460: 0xf4
Address 0x461: 0xae
Address 0x462: 0xf3
Address 0x463: 0xbf
Address 0x464: 0xbb
Address 0x465: 0x66
Address 0x466: 0xfd
Address 0x467: 0x97
Address 0x468: 0xea
Address 0x469: 0x07
Address 0x46a: 0xfd
Address 0x46b: 0x49
Address 0x46c: 0x31
Address 0x46d: 0x38
Address 0x46e: 0x51
Address 0x46f: 0x87
Address 0x470: 0xf3
Address 0x471: 0x84
Address 0x472: 0x5e
Address 0x473: 0x35
Address 0x474: 0x9a
Address 0x475: 0x94
Address 0x476: 0x6a
Address 0x477: 0x32
Address 0x478: 0x25
Address 0x479: 0xa9
Address 0x47a: 0x4b
Address 0x47b: 0xcb
Address 0x47c: 0x6f
Address 0x47d: 0x41
Address 0x47e: 0xe9
Address 0x47f: 0xe5
Address 0x480: 0xcf
Address 0x481: 0x9d
Address 0x482: 0x74
Address 0x483: 0xcd
Address 0x484: 0xc1
Address 0x485: 0x6a
Address 0x486: 0x33
Address 0x487: 0xa0
Address 0x488: 0xdd
Address 0x489: 0xb3
Address 0x48a: 0x66
Address 0x48b: 0xc0
Address 0x48c: 0x86
Address 0x48d: 0x34
Address 0x48e: 0x11
Address 0x48f: 0xa6
Address 0x490: 0x59
Address 0x491: 0x75
Address 0x492: 0x0b
Address 0x493: 0x6f
Address 0x494: 0x75
Address 0x495: 0x59
Address 0x496: 0x23
Address 0x497: 0xcf
Address 0x498: 0x9e
Address 0x499: 0x0c
Address 0x49a: 0x6e
Address 0x49b: 0x88
Address 0x49c: 0xe6
Address 0x49d: 0x0b
Address 0x49e: 0x5a
Address 0x49f: 0x4f
Address 0x4a0: 0xc6
Address 0x4a1: 0xd3
Address 0x4a2: 0x08
Address 0x4a3: 0x20
Address 0x4a4: 0x4a
Address 0x4a5: 0x25
Address 0x4a6: 0x05
Address 0x4a7: 0x24
Address 0x4a8: 0x4f
Address 0x4a9: 0x94
Address 0x4aa: 0xbb
Address 0x4ab: 0xd4
Address 0x4ac: 0x26
Address 0x4ad: 0x43
Address 0x4ae: 0xb2
Address 0x4af: 0x85
Address 0x4b0: 0x91
Address 0x4b1: 0x7d
Address 0x4b2: 0x06
Address 0x4b3: 0xf8
Address 0x4b4: 0x15
Address 0x4b5: 0x99
Address 0x4b6: 0xcd
Address 0x4b7: 0xfb
Address 0x4b8: 0x0b
Address 0x4b9: 0xd4
Address 0x4ba: 0xed
Address 0x4bb: 0x0b
Address 0x4bc: 0x21
Address 0x4bd: 0x36
Address 0x4be: 0xab
Address 0x4bf: 0x19
Address 0x4c0: 0x8a
Address 0x4c1: 0x2c
Address 0x4c2: 0x86
Address 0x4c3: 0x93
Address 0x4c4: 0x1e
Address 0x4c5: 0xe7
Address 0x4c6: 0x38
Address 0x4c7: 0xc4
Address 0x4c8: 0x8b
Address 0x4c9: 0xa3
Address 0x4ca: 0x1a
Address 0x4cb: 0xcc
Address 0x4cc: 0x05
Address 0x4cd: 0x54
Address 0x4ce: 0x61
Address 0x4cf: 0x46
Address 0x4d0: 0x9e
Address 0x4d1: 0xb2
Address 0x4d2: 0xa0
Address 0x4d3: 0x9b
Address 0x4d4: 0x1b
Address 0x4d5: 0x39
Address 0x4d6: 0xd8
Address 0x4d7: 0x23
Address 0x4d8: 0xf1
Address 0x4d9: 0xf6
Address 0x4da: 0x67
Address 0x4db: 0xb4
Address 0x4dc: 0x0e
Address 0x4dd: 0x6a
Address 0x4de: 0xd8
Address 0x4df: 0x76
Address 0x4e0: 0x0f
Address 0x4e1: 0x07
Address 0x4e2: 0xdf
Address 0x4e3: 0xcc
Address 0x4e4: 0x20
Address 0x4e5: 0xa3
Address 0x4e6: 0x4a
Address 0x4e7: 0xe3
Address 0x4e8: 0xc7
Address 0x4e9: 0x13
Address 0x4ea: 0xb1
Address 0x4eb: 0x7e
Address 0x4ec: 0x47
Address 0x4ed: 0xa3
Address 0x4ee: 0x66
Address 0x4ef: 0xfa
Address 0x4f0: 0xad
Address 0x4f1: 0x06
Address 0x4f2: 0xe0
Address 0x4f3: 0x89
Address 0x4f4: 0xcb
Address 0x4f5: 0x61
Address 0x4f6: 0x59
Address 0x4f7: 0xfc
Address 0x4f8: 0xf5
Address 0x4f9: 0xec
Address 0x4fa: 0xbb
Address 0x4fb: 0x6a
Address 0x4fc: 0xc9
Address 0x4fd: 0x52
Address 0x4fe: 0x4e
Address 0x4ff: 0x4e
Address 0x500: 0x4c
Address 0x501: 0x2a
Address 0x502: 0x1a
Address 0x503: 0x77
Address 0x504: 0x25
Address 0x505: 0x0b
Address 0x506: 0x11
Address 0x507: 0x2f
Address 0x508: 0xef
Address 0x509: 0xb1
Address 0x50a: 0x92
Address 0x50b: 0x46
Address 0x50c: 0x66
Address 0x50d: 0x02
Address 0x50e: 0x79
Address 0x50f: 0xc2
Address 0x510: 0x83
Address 0x511: 0x43
Address 0x512: 0xab
Address 0x513: 0x47
Address 0x514: 0x72
Address 0x515: 0xcb
Address 0x516: 0xca
Address 0x517: 0xb0
Address 0x518: 0x54
Address 0x519: 0x0e
Address 0x51a: 0x07
Address 0x51b: 0xa8
Address 0x51c: 0x6c
Address 0x51d: 0x85
Address 0x51e: 0xae
Address 0x51f: 0x27
Address 0x520: 0x31
Address 0x521: 0xbe
Address 0x522: 0x1c
Address 0x523: 0x4b
Address 0x524: 0xac
Address 0x525: 0x2a
Address 0x526: 0xf2
Address 0x527: 0x8f
Address 0x528: 0x94
Address 0x529: 0xbe
Address 0x52a: 0xe3
Address 0x52b: 0xd7
Address 0x52c: 0xaa
Address 0x52d: 0xe6
Address 0x52e: 0xc5
Address 0x52f: 0x47
Address 0x530: 0x12
Address 0x531: 0xf6
Address 0x532: 0x8b
Address 0x533: 0x5a
Address 0x534: 0x05
Address 0x535: 0xf6
Address 0x536: 0x14
Address 0x537: 0xc7
Address 0x538: 0x22
Address 0x539: 0x05
Address 0x53a: 0x13
Address 0x53b: 0x7b
Address 0x53c: 0xc8
Address 0x53d: 0xd0
Address 0x53e: 0xc5
Address 0x53f: 0xb3
Address 0x540: 0x5a
Address 0x541: 0xdc
Address 0x542: 0xd0
Address 0x543: 0x78
Address 0x544: 0x89
Address 0x545: 0x1b
Address 0x546: 0xfd
Address 0x547: 0x61
Address 0x548: 0xb9
Address 0x549: 0xaa
Address 0x54a: 0x77
Address 0x54b: 0xb9
Address 0x54c: 0x12
Address 0x54d: 0x1f
Address 0x54e: 0x18
Address 0x54f: 0x78
Address 0x550: 0xbc
Address 0x551: 0x75
Address 0x552: 0x9d
Address 0x553: 0xc0
Address 0x554: 0x69
Address 0x555: 0x55
Address 0x556: 0xbc
Address 0x557: 0x63
Address 0x558: 0x7e
Address 0x559: 0x74
Address 0x55a: 0x68
Address 0x55b: 0xad
Address 0x55c: 0xb5
Address 0x55d: 0xf9
Address 0x55e: 0xc0
Address 0x55f: 0x19
Address 0x560: 0xfd
Address 0x561: 0xd9
Address 0x562: 0x37
Address 0x563: 0x9d
Address 0x564: 0x31
Address 0x565: 0xe6
Address 0x566: 0x6c
Address 0x567: 0x76
Address 0x568: 0x24
Address 0x569: 0xcd
Address 0x56a: 0x9a
Address 0x56b: 0xfa
Address 0x56c: 0x9a
Address 0x56d: 0x66
Address 0x56e: 0x3f
Address 0x56f: 0xe3
Address 0x570: 0xe5
Address 0x571: 0xf7
Address 0x572: 0x7e
Address 0x573: 0x67
Address 0x574: 0x28
Address 0x575: 0x77
Address 0x576: 0x49
Address 0x577: 0xe1
Address 0x578: 0x95
Address 0x579: 0x2c
Address 0x57a: 0x62
Address 0x57b: 0xba
Address 0x57c: 0xdc
Address 0x57d: 0x9f
Address 0x57e: 0xef
Address 0x57f: 0xa5
Address 0x580: 0xe9
Address 0x581: 0x0b
Address 0x582: 0x36
Address 0x583: 0x26
Address 0x584: 0x00
Address 0x585: 0x95
Address 0x586: 0x18
Address 0x587: 0x04
Address 0x588: 0x0d
Address 0x589: 0xfe
Address 0x58a: 0xde
Address 0x58b: 0x4f
Address 0x58c: 0xe3
Address 0x58d: 0xfd
Address 0x58e: 0xfd
Address 0x58f: 0xd7
Address 0x590: 0xa1
Address 0x591: 0x36
Address 0x592: 0xba
Address 0x593: 0x58
Address 0x594: 0x2e
Address 0x595: 0xa1
Address 0x596: 0x9e
Address 0x597: 0x0c
Address 0x598: 0x98
Address 0x599: 0x52
Address 0x59a: 0x77
Address 0x59b: 0xb8
Address 0x59c: 0xaf
Address 0x59d: 0x5b
Address 0x59e: 0x97
Address 0x59f: 0xd0
Address 0x5a0: 0x64
Address 0x5a1: 0x14
Address 0x5a2: 0x6f
Address 0x5a3: 0x5d
Address 0x5a4: 0xec
Address 0x5a5: 0xc4
Address 0x5a6: 0x2e
Address 0x5a7: 0x25
Address 0x5a8: 0x39
Address 0x5a9: 0xc8
Address 0x5aa: 0x82
Address 0x5ab: 0x17
Address 0x5ac: 0xa7
Address 0x5ad: 0x98
Address 0x5ae: 0x06
Address 0x5af: 0x98
Address 0x5b0: 0xcb
Address 0x5b1: 0x48
Address 0x5b2: 0xf5
Address 0x5b3: 0xa8
Address 0x5b4: 0x24
Address 0x5b5: 0x96
Address 0x5b6: 0xf2
Address 0x5b7: 0x64
Address 0x5b8: 0x7a
Address 0x5b9: 0xd3
Address 0x5ba: 0xe1
Address 0x5bb: 0xe3
Address 0x5bc: 0xfb
Address 0x5bd: 0x3d
Address 0x5be: 0xd3
Address 0x5bf: 0x98
Address 0x5c0: 0xb2
Address 0x5c1: 0x13
Address 0x5c2: 0x79
Address 0x5c3: 0xab
Address 0x5c4: 0xc9
Address 0x5c5: 0xf4
Address 0x5c6: 0xbf
Address 0x5c7: 0x5b
Address 0x5c8: 0x16
Address 0x5c9: 0x49
Address 0x5ca: 0x69
Address 0x5cb: 0x33
Address 0x5cc: 0x03
Address 0x5cd: 0x51
Address 0x5ce: 0x5c
Address 0x5cf: 0x59
Address 0x5d0: 0x16
Address 0x5d1: 0x9a
Address 0x5d2: 0x86
Address 0x5d3: 0x83
Address 0x5d4: 0xf9
Address 0x5d5: 0xff
Address 0x5d6: 0xed
Address 0x5d7: 0xaf
Address 0x5d8: 0xa1
Address 0x5d9: 0x80
Address 0x5da: 0x3b
Address 0x5db: 0xf6
Address 0x5dc: 0xc6
Address 0x5dd: 0xb6
Address 0x5de: 0x6f
Address 0x5df: 0x70
Address 0x5e0: 0x02
Address 0x5e1: 0x5f
Address 0x5e2: 0x37
Address 0x5e3: 0xae
Address 0x5e4: 0xe6
Address 0x5e5: 0x60
Address 0x5e6: 0x87
Address 0x5e7: 0xfe
Address 0x5e8: 0xcd
Address 0x5e9: 0xe1
Address 0x5ea: 0x67
Address 0x5eb: 0x1f
Address 0x5ec: 0xb1
Address 0x5ed: 0x38
Address 0x5ee: 0x72
Address 0x5ef: 0x7a
Address 0x5f0: 0xc0
Address 0x5f1: 0x7f
Address 0x5f2: 0xa6
Address 0x5f3: 0x28
Address 0x5f4: 0xc6
Address 0x5f5: 0x30
Address 0x5f6: 0x07
Address 0x5f7: 0x06
Address 0x5f8: 0xa8
Address 0x5f9: 0x6b
Address 0x5fa: 0x5b
Address 0x5fb: 0x82
Address 0x5fc: 0x28
Address 0x5fd: 0x0a
Address 0x5fe: 0x96
Address 0x5ff: 0x06
Address 0x600: 0x48
Address 0x601: 0x84
Address 0x602: 0x6f
Address 0x603: 0xdd
Address 0x604: 0xd2
Address 0x605: 0x1d
Address 0x606: 0xca
Address 0x607: 0xe4
Address 0x608: 0x9e
Address 0x609: 0xaf
Address 0x60a: 0x6b
Address 0x60b: 0x9e
Address 0x60c: 0x2c
Address 0x60d: 0xe0
Address 0x60e: 0xa2
Address 0x60f: 0x7e
Address 0x610: 0x0e
Address 0x611: 0x78
Address 0x612: 0x7e
Address 0x613: 0x48
Address 0x614: 0x6b
Address 0x615: 0xc3
Address 0x616: 0x48
Address 0x617: 0x08
Address 0x618: 0x69
Address 0x619: 0x1e
Address 0x61a: 0x1b
Address 0x61b: 0x4d
Address 0x61c: 0x74
Address 0x61d: 0xef
Address 0x61e: 0x2d
Address 0x61f: 0x2b
Address 0x620: 0xc0
Address 0x621: 0x76
Address 0x622: 0x1f
Address 0x623: 0xf9
Address 0x624: 0xe6
Address 0x625: 0x50
Address 0x626: 0x8b
Address 0x627: 0x76
Address 0x628: 0xe6
Address 0x629: 0x6d
Address 0x62a: 0x8d
Address 0x62b: 0x99
Address 0x62c: 0x56
Address 0x62d: 0x90
Address 0x62e: 0x78
Address 0x62f: 0xd3
Address 0x630: 0x99
Address 0x631: 0xd5
Address 0x632: 0x0b
Address 0x633: 0x9a
Address 0x634: 0x80
Address 0x635: 0x54
Address 0x636: 0x51
Address 0x637: 0xaf
Address 0x638: 0x55
Address 0x639: 0x1b
Address 0x63a: 0x86
Address 0x63b: 0xf0
Address 0x63c: 0xf8
Address 0x63d: 0xa3
Address 0x63e: 0x2e
Address 0x63f: 0x79
Address 0x640: 0x9b
Address 0x641: 0x0a
Address 0x642: 0x24
Address 0x643: 0xb5
Address 0x644: 0x1d
Address 0x645: 0x7b
Address 0x646: 0x46
Address 0x647: 0xba
Address 0x648: 0x8a
Address 0x649: 0x1d
Address 0x64a: 0x36
Address 0x64b: 0x5f
Address 0x64c: 0xd2
Address 0x64d: 0xb2
Address 0x64e: 0x2d
Address 0x64f: 0x4d
Address 0x650: 0x59
Address 0x651: 0xa4
Address 0x652: 0xc6
Address 0x653: 0x11
Address 0x654: 0x5b
Address 0x655: 0x82
Address 0x656: 0x71
Address 0x657: 0x51
Address 0x658: 0x65
Address 0x659: 0xa1
Address 0x65a: 0x05
Address 0x65b: 0x89
Address 0x65c: 0x33
Address 0x65d: 0x95
Address 0x65e: 0x86
Address 0x65f: 0x15
Address 0x660: 0xfa
Address 0x661: 0x45
Address 0x662: 0x52
Address 0x663: 0xe6
Address 0x664: 0xd6
Address 0x665: 0x06
Address 0x666: 0xa6
Address 0x667: 0xe0
Address 0x668: 0xcb
Address 0x669: 0xc8
Address 0x66a: 0xd6
Address 0x66b: 0x7a
Address 0x66c: 0xde
Address 0x66d: 0x38
Address 0x66e: 0x77
Address 0x66f: 0x85
Address 0x670: 0x80
Address 0x671: 0xce
Address 0x672: 0xea
Address 0x673: 0xea
Address 0x674: 0xd0
Address 0x675: 0x46
Address 0x676: 0x50
Address 0x677: 0x44
Address 0x678: 0xaf
Address 0x679: 0xdf
Address 0x67a: 0xa6
Address 0x67b: 0x0e
Address 0x67c: 0x6b
Address 0x67d: 0xb6
Address 0x67e: 0x8f
Address 0x67f: 0x4c
Address 0x680: 0x65
Address 0x681: 0x1c
Address 0x682: 0xcc
Address 0x683: 0x1d
Address 0x684: 0xd3
Address 0x685: 0x1e
Address 0x686: 0x28
Address 0x687: 0xa7
Address 0x688: 0xc2
Address 0x689: 0x06
Address 0x68a: 0x8d
Address 0x68b: 0x11
Address 0x68c: 0x8e
Address 0x68d: 0x01
Address 0x68e: 0x05
Address 0x68f: 0x08
Address 0x690: 0x78
Address 0x691: 0xe9
Address 0x692: 0xdc
Address 0x693: 0x02
Address 0x694: 0x11
Address 0x695: 0xf4
Address 0x696: 0x33
Address 0x697: 0x8f
Address 0x698: 0x32
Address 0x699: 0xb8
Address 0x69a: 0x6c
Address 0x69b: 0x25
Address 0x69c: 0x47
Address 0x69d: 0x53
Address 0x69e: 0x0f
Address 0x69f: 0xa6
Address 0x6a0: 0x89
Address 0x6a1: 0xc1
Address 0x6a2: 0xa4
Address 0x6a3: 0xf7
Address 0x6a4: 0x1c
Address 0x6a5: 0x80
Address 0x6a6: 0xca
Address 0x6a7: 0x27
Address 0x6a8: 0xb0
Address 0x6a9: 0x0c
Address 0x6aa: 0x3a
Address 0x6ab: 0x73
Address 0x6ac: 0xb1
Address 0x6ad: 0x28
Address 0x6ae: 0xb7
Address 0x6af: 0x93
Address 0x6b0: 0x54
Address 0x6b1: 0xfa
Address 0x6b2: 0x76
Address 0x6b3: 0x4f
Address 0x6b4: 0x63
Address 0x6b5: 0x15
Address 0x6b6: 0x85
Address 0x6b7: 0x41
Address 0x6b8: 0x12
Address 0x6b9: 0x77
Address 0x6ba: 0x95
Address 0x6bb: 0xb2
Address 0x6bc: 0xe8
Address 0x6bd: 0x1a
Address 0x6be: 0x27
Address 0x6bf: 0xf9
Address 0x6c0: 0xf6
Address 0x6c1: 0x45
Address 0x6c2: 0x5e
Address 0x6c3: 0xbd
Address 0x6c4: 0x09
Address 0x6c5: 0x09
Address 0x6c6: 0xae
Address 0x6c7: 0x45
Address 0x6c8: 0x5f
Address 0x6c9: 0xca
Address 0x6ca: 0x77
Address 0x6cb: 0x28
Address 0x6cc: 0x83
Address 0x6cd: 0x65
Address 0x6ce: 0x55
Address 0x6cf: 0xe8
Address 0x6d0: 0x89
Address 0x6d1: 0xfd
Address 0x6d2: 0x88
Address 0x6d3: 0xed
Address 0x6d4: 0xf3
Address 0x6d5: 0x72
Address 0x6d6: 0xbc
Address 0x6d7: 0xa8
Address 0x6d8: 0xc6
Address 0x6d9: 0x65
Address 0x6da: 0x3b
Address 0x6db: 0xbd
Address 0x6dc: 0x15
Address 0x6dd: 0x1a
Address 0x6de: 0xba
Address 0x6df: 0xf1
Address 0x6e0: 0x8b
Address 0x6e1: 0xd6
Address 0x6e2: 0x74
Address 0x6e3: 0x97
Address 0x6e4: 0xb8
Address 0x6e5: 0x43
Address 0x6e6: 0xf2
Address 0x6e7: 0x2d
Address 0x6e8: 0x6a
Address 0x6e9: 0xeb
Address 0x6ea: 0x42
Address 0x6eb: 0x62
Address 0x6ec: 0xff
Address 0x6ed: 0x92
Address 0x6ee: 0x5e
Address 0x6ef: 0xda
Address 0x6f0: 0xb7
Address 0x6f1: 0x53
Address 0x6f2: 0x35
Address 0x6f3: 0x13
Address 0x6f4: 0x6f
Address 0x6f5: 0xf1
Address 0x6f6: 0xdd
Address 0x6f7: 0x51
Address 0x6f8: 0x5b
Address 0x6f9: 0x91
Address 0x6fa: 0x3b
Address 0x6fb: 0xec
Address 0x6fc: 0x56
Address 0x6fd: 0x45
Address 0x6fe: 0x52
Address 0x6ff: 0xc4
Address 0x700: 0x14
Address 0x701: 0x02
Address 0x702: 0x0c
Address 0x703: 0x37
Address 0x704: 0xe2
Address 0x705: 0x3e
Address 0x706: 0xe6
Address 0x707: 0xce
Address 0x708: 0x3f
Address 0x709: 0xd4
Address 0x70a: 0x8c
Address 0x70b: 0x0b
Address 0x70c: 0x7e
Address 0x70d: 0xfe
Address 0x70e: 0x49
Address 0x70f: 0x92
Address 0x710: 0x27
Address 0x711: 0xcf
Address 0x712: 0x9e
Address 0x713: 0xf8
Address 0x714: 0xfa
Address 0x715: 0x3a
Address 0x716: 0x23
Address 0x717: 0xc9
Address 0x718: 0x31
Address 0x719: 0x2f
Address 0x71a: 0xce
Address 0x71b: 0x9d
Address 0x71c: 0x91
Address 0x71d: 0x25
Address 0x71e: 0x3d
Address 0x71f: 0xba
Address 0x720: 0xae
Address 0x721: 0x58
Address 0x722: 0x55
Address 0x723: 0xd9
Address 0x724: 0xfb
Address 0x725: 0xfc
Address 0x726: 0xe0
Address 0x727: 0x44
Address 0x728: 0x03
Address 0x729: 0xac
Address 0x72a: 0xa4
Address 0x72b: 0x56
Address 0x72c: 0x8f
Address 0x72d: 0x01
Address 0x72e: 0x10
Address 0x72f: 0x3a
Address 0x730: 0xc8
Address 0x731: 0x00
Address 0x732: 0x1d
Address 0x733: 0xc5
Address 0x734: 0xa3
Address 0x735: 0x4f
Address 0x736: 0xfd
Address 0x737: 0xce
Address 0x738: 0xb5
Address 0x739: 0x84
Address 0x73a: 0xf7
Address 0x73b: 0x94
Address 0x73c: 0x41
Address 0x73d: 0xdf
Address 0x73e: 0x04
Address 0x73f: 0xca
Address 0x740: 0x87
Address 0x741: 0x78
Address 0x742: 0x7d
Address 0x743: 0xcd
Address 0x744: 0xa7
Address 0x745: 0xc8
Address 0x746: 0x1b
Address 0x747: 0xdf
Address 0x748: 0xb2
Address 0x749: 0x1d
Address 0x74a: 0x0b
Address 0x74b: 0x5a
Address 0x74c: 0x83
Address 0x74d: 0x75
Address 0x74e: 0xc6
Address 0x74f: 0x2e
Address 0x750: 0xb7
Address 0x751: 0x6c
Address 0x752: 0xaa
Address 0x753: 0x2a
Address 0x754: 0x7c
Address 0x755: 0x8b
Address 0x756: 0x1f
Address 0x757: 0xcf
Address 0x758: 0x8f
Address 0x759: 0x18
Address 0x75a: 0xc0
Address 0x75b: 0xc4
Address 0x75c: 0x2b
Address 0x75d: 0xb8
Address 0x75e: 0x0b
Address 0x75f: 0x0a
Address 0x760: 0xe0
Address 0x761: 0xe4
Address 0x762: 0xc3
Address 0x763: 0xe6
Address 0x764: 0x89
Address 0x765: 0x27
Address 0x766: 0xf0
Address 0x767: 0xfd
Address 0x768: 0xea
Address 0x769: 0x7f
Address 0x76a: 0x89
Address 0x76b: 0x5e
Address 0x76c: 0x7a
Address 0x76d: 0x76
Address 0x76e: 0xca
Address 0x76f: 0xe3
Address 0x770: 0x75
Address 0x771: 0xbf
Address 0x772: 0x95
Address 0x773: 0x38
Address 0x774: 0x21
Address 0x775: 0xde
Address 0x776: 0xa8
Address 0x777: 0x76
Address 0x778: 0x44
Address 0x779: 0x71
Address 0x77a: 0x61
Address 0x77b: 0x47
Address 0x77c: 0x9c
Address 0x77d: 0xbc
Address 0x77e: 0xd9
Address 0x77f: 0x21
Address 0x780: 0x4a
Address 0x781: 0x9b
Address 0x782: 0xc8
Address 0x783: 0xd1
Address 0x784: 0xd8
Address 0x785: 0x7b
Address 0x786: 0x68
Address 0x787: 0xa0
Address 0x788: 0x3e
Address 0x789: 0x18
Address 0x78a: 0x90
Address 0x78b: 0xf1
Address 0x78c: 0x20
Address 0x78d: 0x2f
Address 0x78e: 0xaa
Address 0x78f: 0x25
Address 0x790: 0x1a
Address 0x791: 0x04
Address 0x792: 0xe4
Address 0x793: 0x9c
Address 0x794: 0x99
Address 0x795: 0x8a
Address 0x796: 0x53
Address 0x797: 0xb7
Address 0x798: 0x7c
Address 0x799: 0x1c
Address 0x79a: 0x25
Address 0x79b: 0x53
Address 0x79c: 0x34
Address 0x79d: 0x48
Address 0x79e: 0xd8
Address 0x79f: 0x59
Address 0x7a0: 0xeb
Address 0x7a1: 0x47
Address 0x7a2: 0x3e
Address 0x7a3: 0xca
Address 0x7a4: 0xf7
Address 0x7a5: 0xf5
Address 0x7a6: 0xfc
Address 0x7a7: 0x97
Address 0x7a8: 0x97
Address 0x7a9: 0x24
Address 0x7aa: 0x85
Address 0x7ab: 0xb1
Address 0x7ac: 0x5a
Address 0x7ad: 0x1f
Address 0x7ae: 0x03
Address 0x7af: 0xec
Address 0x7b0: 0xf0
Address 0x7b1: 0x51
Address 0x7b2: 0xa4
Address 0x7b3: 0x5b
Address 0x7b4: 0x37
Address 0x7b5: 0xb2
Address 0x7b6: 0x72
Address 0x7b7: 0x95
Address 0x7b8: 0x12
Address 0x7b9: 0xa6
Address 0x7ba: 0xcd
Address 0x7bb: 0x34
Address 0x7bc: 0x82
Address 0x7bd: 0xa2
Address 0x7be: 0x05
Address 0x7bf: 0x0f
Address 0x7c0: 0x24
Address 0x7c1: 0xbf
Address 0x7c2: 0x95
Address 0x7c3: 0x80
Address 0x7c4: 0xe9
Address 0x7c5: 0x0f
Address 0x7c6: 0x9f
Address 0x7c7: 0x37
Address 0x7c8: 0xcc
Address 0x7c9: 0x2f
Address 0x7ca: 0x9b
Address 0x7cb: 0xca
Address 0x7cc: 0x04
Address 0x7cd: 0xa0
Address 0x7ce: 0x34
Address 0x7cf: 0xb1
Address 0x7d0: 0x43
Address 0x7d1: 0x81
Address 0x7d2: 0x90
Address 0x7d3: 0x38
Address 0x7d4: 0xec
Address 0x7d5: 0x3f
Address 0x7d6: 0x7d
Address 0x7d7: 0x85
Address 0x7d8: 0x46
Address 0x7d9: 0x8d
Address 0x7da: 0xf5
Address 0x7db: 0x17
Address 0x7dc: 0xd1
Address 0x7dd: 0x07
Address 0x7de: 0x59
Address 0x7df: 0xef
Address 0x7e0: 0x99
Address 0x7e1: 0x1b
Address 0x7e2: 0xa0
Address 0x7e3: 0x37
Address 0x7e4: 0xfb
Address 0x7e5: 0x00
Address 0x7e6: 0xb9
Address 0x7e7: 0x97
Address 0x7e8: 0x5c
Address 0x7e9: 0x3e
Address 0x7ea: 0xcf
Address 0x7eb: 0x9c
Address 0x7ec: 0x42
Address 0x7ed: 0x98
Address 0x7ee: 0xc2
Address 0x7ef: 0x24
Address 0x7f0: 0x54
Address 0x7f1: 0x59
Address 0x7f2: 0x6f
Address 0x7f3: 0x25
Address 0x7f4: 0x39
Address 0x7f5: 0x64
Address 0x7f6: 0xa6
Address 0x7f7: 0x9b
Address 0x7f8: 0xcb
Address 0x7f9: 0xe6
Address 0x7fa: 0xe6
Address 0x7fb: 0x55
Address 0x7fc: 0xf2
Address 0x7fd: 0xc4
Address 0x7fe: 0xaa
Address 0x7ff: 0xec
Address 0x800: 0xf4
Address 0x801: 0xe0
Address 0x802: 0x12
Address 0x803: 0x2c
Address 0x804: 0x5a
Address 0x805: 0x27
Address 0x806: 0x5f
Address 0x807: 0x09
Address 0x808: 0x4e
Address 0x809: 0xe7
Address 0x80a: 0x6b
Address 0x80b: 0xc6
Address 0x80c: 0x4f
Address 0x80d: 0x5f
Address 0x80e: 0xe0
Address 0x80f: 0xdd
Address 0x810: 0x7b
Address 0x811: 0xd1
Address 0x812: 0xf2
Address 0x813: 0x8f
Address 0x814: 0x26
Address 0x815: 0xd9
Address 0x816: 0xa1
Address 0x817: 0x74
Address 0x818: 0x0f
Address 0x819: 0x5b
Address 0x81a: 0x65
Address 0x81b: 0xa7
Address 0x81c: 0x69
Address 0x81d: 0x4b
Address 0x81e: 0xc6
Address 0x81f: 0x9a
Address 0x820: 0xbe
Address 0x821: 0x2e
Address 0x822: 0xcb
Address 0x823: 0x3a
Address 0x824: 0x5c
Address 0x825: 0xc2
Address 0x826: 0x2c
Address 0x827: 0x5c
Address 0x828: 0xc9
Address 0x829: 0x85
Address 0x82a: 0xa0
Address 0x82b: 0x17
Address 0x82c: 0x12
Address 0x82d: 0xa0
Address 0x82e: 0x39
Address 0x82f: 0x75
Address 0x830: 0x17
Address 0x831: 0x0b
Address 0x832: 0x40
Address 0x833: 0x46
Address 0x834: 0x73
Address 0x835: 0xbe
Address 0x836: 0x35
Address 0x837: 0x27
Address 0x838: 0x67
Address 0x839: 0x74
Address 0x83a: 0x2b
Address 0x83b: 0xe9
Address 0x83c: 0x6e
Address 0x83d: 0x96
Address 0x83e: 0xe6
Address 0x83f: 0xe3
Address 0x840: 0xe7
Address 0x841: 0xae
Address 0x842: 0xbc
Address 0x843: 0xb0
Address 0x844: 0x87
Address 0x845: 0xc7
Address 0x846: 0xe6
Address 0x847: 0xe1
Address 0x848: 0xab
Address 0x849: 0xc5
Address 0x84a: 0x7b
Address 0x84b: 0xd2
Address 0x84c: 0x6e
Address 0x84d: 0x86
Address 0x84e: 0xee
Address 0x84f: 0x72
Address 0x850: 0x76
Address 0x851: 0x82
Address 0x852: 0x0a
Address 0x853: 0x36
Address 0x854: 0x62
Address 0x855: 0xed
Address 0x856: 0xac
Address 0x857: 0x62
Address 0x858: 0xf0
Address 0x859: 0x23
Address 0x85a: 0x73
Address 0x85b: 0x97
Address 0x85c: 0x04
Address 0x85d: 0xec
Address 0x85e: 0xd1
Address 0x85f: 0x6c
Address 0x860: 0x70
Address 0x861: 0x95
Address 0x862: 0x2e
Address 0x863: 0x4c
Address 0x864: 0xfc
Address 0x865: 0xa2
Address 0x866: 0xb4
Address 0x867: 0xcd
Address 0x868: 0x6f
Address 0x869: 0x16
Address 0x86a: 0x15
Address 0x86b: 0x6d
Address 0x86c: 0x90
Address 0x86d: 0xf8
Address 0x86e: 0x21
Address 0x86f: 0xee
Address 0x870: 0xcf
Address 0x871: 0xda
Address 0x872: 0xee
Address 0x873: 0x43
Address 0x874: 0x93
Address 0x875: 0x28
Address 0x876: 0xde
Address 0x877: 0x77
Address 0x878: 0x4c
Address 0x879: 0x11
Address 0x87a: 0x14
Address 0x87b: 0x59
Address 0x87c: 0x5a
Address 0x87d: 0x41
Address 0x87e: 0x69
Address 0x87f: 0x97
Address 0x880: 0xa8
Address 0x881: 0xb0
Address 0x882: 0x07
Address 0x883: 0xad
Address 0x884: 0xb0
Address 0x885: 0xf1
Address 0x886: 0xda
Address 0x887: 0x60
Address 0x888: 0x67
Address 0x889: 0x8c
Address 0x88a: 0xb3
Address 0x88b: 0xa6
Address 0x88c: 0x7e
Address 0x88d: 0x39
Address 0x88e: 0x19
Address 0x88f: 0x6e
Address 0x890: 0x9e
Address 0x891: 0x9e
Address 0x892: 0xb0
Address 0x893: 0x6c
Address 0x894: 0xdc
Address 0x895: 0x20
Address 0x896: 0x4a
Address 0x897: 0xbd
Address 0x898: 0xf3
Address 0x899: 0x61
Address 0x89a: 0x22
Address 0x89b: 0x07
Address 0x89c: 0xa9
Address 0x89d: 0x43
Address 0x89e: 0xc7
Address 0x89f: 0x53
Address 0x8a0: 0xa5
Address 0x8a1: 0x74
Address 0x8a2: 0xb3
Address 0x8a3: 0x54
Address 0x8a4: 0x14
Address 0x8a5: 0xc4
Address 0x8a6: 0x8d
Address 0x8a7: 0x48
Address 0x8a8: 0x30
Address 0x8a9: 0x43
Address 0x8aa: 0xbb
Address 0x8ab: 0x1a
Address 0x8ac: 0xac
Address 0x8ad: 0x60
Address 0x8ae: 0x46
Address 0x8af: 0xf8
Address 0x8b0: 0xe9
Address 0x8b1: 0x6d
Address 0x8b2: 0x3e
Address 0x8b3: 0xc1
Address 0x8b4: 0x71
Address 0x8b5: 0x86
Address 0x8b6: 0x99
Address 0x8b7: 0x01
Address 0x8b8: 0x57
Address 0x8b9: 0x00
Address 0x8ba: 0x76
Address 0x8bb: 0x81
Address 0x8bc: 0x38
Address 0x8bd: 0xc9
Address 0x8be: 0x5e
Address 0x8bf: 0xaf
Address 0x8c0: 0x6f
Address 0x8c1: 0xa9
Address 0x8c2: 0xfd
Address 0x8c3: 0x44
Address 0x8c4: 0xd2
Address 0x8c5: 0x38
Address 0x8c6: 0x6e
Address 0x8c7: 0x78
Address 0x8c8: 0x08
Address 0x8c9: 0x0d
Address 0x8ca: 0x60
Address 0x8cb: 0xa5
Address 0x8cc: 0x70
Address 0x8cd: 0x46
Address 0x8ce: 0x64
Address 0x8cf: 0x77
Address 0x8d0: 0xce
Address 0x8d1: 0x70
Address 0x8d2: 0x5d
Address 0x8d3: 0x5a
Address 0x8d4: 0x95
Address 0x8d5: 0xac
Address 0x8d6: 0xe9
Address 0x8d7: 0xf9
Address 0x8d8: 0x92
Address 0x8d9: 0x13
Address 0x8da: 0x71
Address 0x8db: 0x68
Address 0x8dc: 0xf5
Address 0x8dd: 0xc6
Address 0x8de: 0x19
Address 0x8df: 0xcf
Address 0x8e0: 0x6c
Address 0x8e1: 0x47
Address 0x8e2: 0x06
Address 0x8e3: 0x6f
Address 0x8e4: 0x66
Address 0x8e5: 0x13
Address 0x8e6: 0xd0
Address 0x8e7: 0x67
Address 0x8e8: 0x91
Address 0x8e9: 0x41
Address 0x8ea: 0xc2
Address 0x8eb: 0xd4
Address 0x8ec: 0x81
Address 0x8ed: 0x25
Address 0x8ee: 0x23
Address 0x8ef: 0x51
Address 0x8f0: 0x62
Address 0x8f1: 0x8c
Address 0x8f2: 0x90
Address 0x8f3: 0x37
Address 0x8f4: 0x6f
Address 0x8f5: 0xe3
Address 0x8f6: 0xe0
Address 0x8f7: 0xda
Address 0x8f8: 0x22
Address 0x8f9: 0xeb
Address 0x8fa: 0x95
Address 0x8fb: 0xc7
Address 0x8fc: 0x0d
Address 0x8fd: 0xaa
Address 0x8fe: 0x24
Address 0x8ff: 0x67
Address 0x900: 0x31
Address 0x901: 0xfa
Address 0x902: 0x2d
Address 0x903: 0x2f
Address 0x904: 0x06
Address 0x905: 0xbc
Address 0x906: 0x17
Address 0x907: 0xe8
Address 0x908: 0x8c
Address 0x909: 0x92
Address 0x90a: 0x06
Address 0x90b: 0xbe
Address 0x90c: 0xd9
Address 0x90d: 0x6e
Address 0x90e: 0x02
Address 0x90f: 0x75
Address 0x910: 0x90
Address 0x911: 0x06
Address 0x912: 0xc3
Address 0x913: 0xdc
Address 0x914: 0x9b
Address 0x915: 0xc7
Address 0x916: 0xa7
Address 0x917: 0x08
Address 0x918: 0x0d
Address 0x919: 0xa1
Address 0x91a: 0x39
Address 0x91b: 0x0e
Address 0x91c: 0x34
Address 0x91d: 0x50
Address 0x91e: 0x15
Address 0x91f: 0x52
Address 0x920: 0xd7
Address 0x921: 0x8e
Address 0x922: 0x91
Address 0x923: 0xe4
Address 0x924: 0x00
Address 0x925: 0x62
Address 0x926: 0xbf
Address 0x927: 0x06
Address 0x928: 0x60
Address 0x929: 0x71
Address 0x92a: 0x3b
Address 0x92b: 0x9e
Address 0x92c: 0x0e
Address 0x92d: 0x09
Address 0x92e: 0x30
Address 0x92f: 0x0d
Address 0x930: 0x6d
Address 0x931: 0x64
Address 0x932: 0xbf
Address 0x933: 0x61
Address 0x934: 0x6d
Address 0x935: 0x73
Address 0x936: 0xc4
Address 0x937: 0xa2
Address 0x938: 0x2d
Address 0x939: 0xdd
Address 0x93a: 0x97
Address 0x93b: 0x1a
Address 0x93c: 0x42
Address 0x93d: 0x7c
Address 0x93e: 0x6d
Address 0x93f: 0x48
Address 0x940: 0x93
Address 0x941: 0x44
Address 0x942: 0xec
Address 0x943: 0x95
Address 0x944: 0x67
Address 0x945: 0x6d
Address 0x946: 0xb2
Address 0x947: 0x1c
Address 0x948: 0x73
Address 0x949: 0x94
Address 0x94a: 0xc3
Address 0x94b: 0xbc
Address 0x94c: 0x64
Address 0x94d: 0x65
Address 0x94e: 0x80
Address 0x94f: 0xf5
Address 0x950: 0x74
Address 0x951: 0x1c
Address 0x952: 0x3e
Address 0x953: 0x73
Address 0x954: 0xd3
Address 0x955: 0x04
Address 0x956: 0x89
Address 0x957: 0xb4
Address 0x958: 0x67
Address 0x959: 0x05
Address 0x95a: 0xd7
Address 0x95b: 0xa6
Address 0x95c: 0xfd
Address 0x95d: 0xcd
Address 0x95e: 0xb1
Address 0x95f: 0x2f
Address 0x960: 0x84
Address 0x961: 0xcb
Address 0x962: 0xf2
Address 0x963: 0xe0
Address 0x964: 0x0e
Address 0x965: 0x31
Address 0x966: 0x54
Address 0x967: 0xbc
Address 0x968: 0xb4
Address 0x969: 0xb4
Address 0x96a: 0x3d
Address 0x96b: 0x31
Address 0x96c: 0xc5
Address 0x96d: 0xe8
Address 0x96e: 0xd9
Address 0x96f: 0xcc
Address 0x970: 0xe2
Address 0x971: 0x85
Address 0x972: 0x65
Address 0x973: 0x42
Address 0x974: 0x2a
Address 0x975: 0x9b
Address 0x976: 0x10
Address 0x977: 0x32
Address 0x978: 0xb4
Address 0x979: 0x02
Address 0x97a: 0xb1
Address 0x97b: 0x45
Address 0x97c: 0x9a
Address 0x97d: 0xb3
Address 0x97e: 0x78
Address 0x97f: 0xd8
Address 0x980: 0x94
Address 0x981: 0x5f
Address 0x982: 0x73
Address 0x983: 0x4f
Address 0x984: 0x99
Address 0x985: 0xd1
Address 0x986: 0xab
Address 0x987: 0x69
Address 0x988: 0x7c
Address 0x989: 0x50
Address 0x98a: 0x48
Address 0x98b: 0x98
Address 0x98c: 0xbd
Address 0x98d: 0xac
Address 0x98e: 0xd2
Address 0x98f: 0x87
Address 0x990: 0xd0
Address 0x991: 0x69
Address 0x992: 0x73
Address 0x993: 0x92
Address 0x994: 0x1b
Address 0x995: 0xa3
Address 0x996: 0xf8
Address 0x997: 0xcb
Address 0x998: 0xb4
Address 0x999: 0xa2
Address 0x99a: 0xa0
Address 0x99b: 0x2c
Address 0x99c: 0x24
Address 0x99d: 0x1d
Address 0x99e: 0x8f
Address 0x99f: 0xc7
Address 0x9a0: 0x72
Address 0x9a1: 0x35
Address 0x9a2: 0xf6
Address 0x9a3: 0x5c
Address 0x9a4: 0x79
Address 0x9a5: 0xcb
Address 0x9a6: 0x24
Address 0x9a7: 0xed
Address 0x9a8: 0xed
Address 0x9a9: 0xf4
Address 0x9aa: 0x93
Address 0x9ab: 0xfc
Address 0x9ac: 0x47
Address 0x9ad: 0xbe
Address 0x9ae: 0x41
Address 0x9af: 0xf3
Address 0x9b0: 0xa6
Address 0x9b1: 0x57
Address 0x9b2: 0x57
Address 0x9b3: 0xe3
Address 0x9b4: 0x3f
Address 0x9b5: 0x7d
Address 0x9b6: 0x05
Address 0x9b7: 0x88
Address 0x9b8: 0xe1
Address 0x9b9: 0x04
Address 0x9ba: 0x24
Address 0x9bb: 0x90
Address 0x9bc: 0x4b
Address 0x9bd: 0x5c
Address 0x9be: 0x3d
Address 0x9bf: 0xa1
Address 0x9c0: 0x65
Address 0x9c1: 0x0c
Address 0x9c2: 0x35
Address 0x9c3: 0x03
Address 0x9c4: 0x67
Address 0x9c5: 0x55
Address 0x9c6: 0xf6
Address 0x9c7: 0x06
Address 0x9c8: 0x86
Address 0x9c9: 0x31
Address 0x9ca: 0x06
Address 0x9cb: 0xb1
Address 0x9cc: 0x7f
Address 0x9cd: 0x03
Address 0x9ce: 0x74
Address 0x9cf: 0x3b
Address 0x9d0: 0x74
Address 0x9d1: 0x0b
Address 0x9d2: 0x9e
Address 0x9d3: 0x29
Address 0x9d4: 0x47
Address 0x9d5: 0x49
Address 0x9d6: 0xb1
Address 0x9d7: 0x2d
Address 0x9d8: 0x0a
Address 0x9d9: 0x8e
Address 0x9da: 0xa2
Address 0x9db: 0xa0
Address 0x9dc: 0xd4
Address 0x9dd: 0xa4
Address 0x9de: 0x4a
Address 0x9df: 0x0e
Address 0x9e0: 0x58
Address 0x9e1: 0xf4
Address 0x9e2: 0xc6
Address 0x9e3: 0x75
Address 0x9e4: 0x8d
Address 0x9e5: 0x3e
Address 0x9e6: 0x91
Address 0x9e7: 0x5a
Address 0x9e8: 0xc8
Address 0x9e9: 0x2e
Address 0x9ea: 0x9f
Address 0x9eb: 0x18
Address 0x9ec: 0x95
Address 0x9ed: 0x5f
Address 0x9ee: 0xdd
Address 0x9ef: 0x69
Address 0x9f0: 0x68
Address 0x9f1: 0x5b
Address 0x9f2: 0x33
Address 0x9f3: 0x8c
Address 0x9f4: 0x29
Address 0x9f5: 0x4f
Address 0x9f6: 0xda
Address 0x9f7: 0x9b
Address 0x9f8: 0x63
Address 0x9f9: 0xf4
Address 0x9fa: 0xa9
Address 0x9fb: 0xf3
Address 0x9fc: 0x42
Address 0x9fd: 0x4a
Address 0x9fe: 0x7f
Address 0x9ff: 0xa8
Address 0xa00: 0x40
Address 0xa01: 0xc3
Address 0xa02: 0x62
Address 0xa03: 0x5d
Address 0xa04: 0x80
Address 0xa05: 0x5c
Address 0xa06: 0x9b
Address 0xa07: 0xca
Address 0xa08: 0xf7
Address 0xa09: 0x5f
Address 0xa0a: 0xa2
Address 0xa0b: 0x71
Address 0xa0c: 0x68
Address 0xa0d: 0xf4
Address 0xa0e: 0x32
Address 0xa0f: 0x8c
Address 0xa10: 0xc2
Address 0xa11: 0x2d
Address 0xa12: 0x3d
Address 0xa13: 0x61
Address 0xa14: 0x89
Address 0xa15: 0x1d
Address 0xa16: 0x3a
Address 0xa17: 0xcb
Address 0xa18: 0xd9
Address 0xa19: 0xa1
Address 0xa1a: 0x3c
Address 0xa1b: 0x30
Address 0xa1c: 0xb2
Address 0xa1d: 0x70
Address 0xa1e: 0x3c
Address 0xa1f: 0x75
Address 0xa20: 0xda
Address 0xa21: 0xb7
Address 0xa22: 0xf6
Address 0xa23: 0x50
Address 0xa24: 0x3d
Address 0xa25: 0xf7
Address 0xa26: 0x57
Address 0xa27: 0x0f
Address 0xa28: 0x1f
Address 0xa29: 0xdd
Address 0xa2a: 0xb7
Address 0xa2b: 0x4d
Address 0xa2c: 0x6a
Address 0xa2d: 0xd2
Address 0xa2e: 0x46
Address 0xa2f: 0x61
Address 0xa30: 0x60
Address 0xa31: 0xa4
Address 0xa32: 0x48
Address 0xa33: 0x09
Address 0xa34: 0xf5
Address 0xa35: 0x00
Address 0xa36: 0xc9
Address 0xa37: 0xf0
Address 0xa38: 0x95
Address 0xa39: 0x1a
Address 0xa3a: 0x30
Address 0xa3b: 0x93
Address 0xa3c: 0x03
Address 0xa3d: 0xe8
Address 0xa3e: 0x70
Address 0xa3f: 0x8f
Address 0xa40: 0x60
Address 0xa41: 0x57
Address 0xa42: 0xf4
Address 0xa43: 0x4c
Address 0xa44: 0x69
Address 0xa45: 0x26
Address 0xa46: 0x5e
Address 0xa47: 0xb0
Address 0xa48: 0x8c
Address 0xa49: 0x2e
Address 0xa4a: 0x20
Address 0xa4b: 0x11
Address 0xa4c: 0xf2
Address 0xa4d: 0x5f
Address 0xa4e: 0xe1
Address 0xa4f: 0xdf
Address 0xa50: 0xbe
Address 0xa51: 0xc7
Address 0xa52: 0x55
Address 0xa53: 0xcc
Address 0xa54: 0x9a
Address 0xa55: 0xf8
Address 0xa56: 0x63
Address 0xa57: 0x12
Address 0xa58: 0xa5
Address 0xa59: 0x5c
Address 0xa5a: 0x45
Address 0xa5b: 0x70
Address 0xa5c: 0x94
Address 0xa5d: 0x0b
Address 0xa5e: 0x7f
Address 0xa5f: 0x01
Address 0xa60: 0x19
Address 0xa61: 0xaf
Address 0xa62: 0xe0
Address 0xa63: 0xf2
Address 0xa64: 0x1a
Address 0xa65: 0xcf
Address 0xa66: 0x4f
Address 0xa67: 0x6a
Address 0xa68: 0xb8
Address 0xa69: 0x4d
Address 0xa6a: 0x83
Address 0xa6b: 0xfb
Address 0xa6c: 0x80
Address 0xa6d: 0x2d
Address 0xa6e: 0xd2
Address 0xa6f: 0x4e
Address 0xa70: 0x05
Address 0xa71: 0xc2
Address 0xa72: 0x0b
Address 0xa73: 0xef
Address 0xa74: 0xf4
Address 0xa75: 0xb9
Address 0xa76: 0x83
Address 0xa77: 0x2d
Address 0xa78: 0x81
Address 0xa79: 0x01
Address 0xa7a: 0x48
Address 0xa7b: 0xf3
Address 0xa7c: 0x18
Address 0xa7d: 0xac
Address 0xa7e: 0x8b
Address 0xa7f: 0xf5
Address 0xa80: 0x57
Address 0xa81: 0x7c
Address 0xa82: 0x4f
Address 0xa83: 0x64
Address 0xa84: 0x14
Address 0xa85: 0xa3
Address 0xa86: 0xa6
Address 0xa87: 0x19
Address 0xa88: 0x49
Address 0xa89: 0x1f
Address 0xa8a: 0x48
Address 0xa8b: 0x9e
Address 0xa8c: 0xeb
Address 0xa8d: 0x6a
Address 0xa8e: 0x7d
Address 0xa8f: 0x5f
Address 0xa90: 0x04
Address 0xa91: 0x49
Address 0xa92: 0x9b
Address 0xa93: 0x32
Address 0xa94: 0xfa
Address 0xa95: 0xf8
Address 0xa96: 0xca
Address 0xa97: 0x6d
Address 0xa98: 0xec
Address 0xa99: 0xcf
Address 0xa9a: 0xc9
Address 0xa9b: 0xa2
Address 0xa9c: 0x2f
Address 0xa9d: 0x0e
Address 0xa9e: 0xfe
Address 0xa9f: 0x1a
Address 0xaa0: 0x65
Address 0xaa1: 0xaf
Address 0xaa2: 0x43
Address 0xaa3: 0x5c
Address 0xaa4: 0x5c
Address 0xaa5: 0x23
Address 0xaa6: 0x3a
Address 0xaa7: 0x40
Address 0xaa8: 0xaf
Address 0xaa9: 0x47
Address 0xaaa: 0x66
Address 0xaab: 0x11
Address 0xaac: 0xfa
Address 0xaad: 0xd9
Address 0xaae: 0x8e
Address 0xaaf: 0x9d
Address 0xab0: 0x76
Address 0xab1: 0x31
Address 0xab2: 0xd2
Address 0xab3: 0xc6
Address 0xab4: 0xde
Address 0xab5: 0xd1
Address 0xab6: 0xa3
Address 0xab7: 0x65
Address 0xab8: 0xd8
Address 0xab9: 0x35
Address 0xaba: 0x4c
Address 0xabb: 0x62
Address 0xabc: 0x73
Address 0xabd: 0x95
Address 0xabe: 0x60
Address 0xabf: 0x12
Address 0xac0: 0x03
Address 0xac1: 0xdc
Address 0xac2: 0x2b
Address 0xac3: 0x54
Address 0xac4: 0xbd
Address 0xac5: 0x0f
Address 0xac6: 0x37
Address 0xac7: 0xda
Address 0xac8: 0xf9
Address 0xac9: 0xf5
Address 0xaca: 0x29
Address 0xacb: 0x09
Address 0xacc: 0xc6
Address 0xacd: 0xd6
Address 0xace: 0xaa
Address 0xacf: 0x87
Address 0xad0: 0x7b
Address 0xad1: 0x71
Address 0xad2: 0x14
Address 0xad3: 0xee
Address 0xad4: 0x07
Address 0xad5: 0xb8
Address 0xad6: 0x6b
Address 0xad7: 0xfc
Address 0xad8: 0xbf
Address 0xad9: 0xbb
Address 0xada: 0x4d
Address 0xadb: 0x06
Address 0xadc: 0x1d
Address 0xadd: 0xc3
Address 0xade: 0x07
Address 0xadf: 0xa7
Address 0xae0: 0xb3
Address 0xae1: 0x1e
Address 0xae2: 0x03
Address 0xae3: 0x3c
Address 0xae4: 0xbf
Address 0xae5: 0x60
Address 0xae6: 0x21
Address 0xae7: 0x99
Address 0xae8: 0xbf
Address 0xae9: 0x5d
Address 0xaea: 0x75
Address 0xaeb: 0xe0
Address 0xaec: 0x81
Address 0xaed: 0x3c
Address 0xaee: 0x3e
Address 0xaef: 0x91
Address 0xaf0: 0x8c
Address 0xaf1: 0x68
Address 0xaf2: 0x32
Address 0xaf3: 0x22
Address 0xaf4: 0x1d
Address 0xaf5: 0xf7
Address 0xaf6: 0x98
Address 0xaf7: 0x56
Address 0xaf8: 0x55
Address 0xaf9: 0x1b
Address 0xafa: 0x94
Address 0xafb: 0xe1
Address 0xafc: 0x34
Address 0xafd: 0x14
Address 0xafe: 0x79
Address 0xaff: 0x47
Address 0xb00: 0x8d
Address 0xb01: 0x13
Address 0xb02: 0xd2
Address 0xb03: 0x43
Address 0xb04: 0x7c
Address 0xb05: 0x8c
Address 0xb06: 0xa9
Address 0xb07: 0x87
Address 0xb08: 0x75
Address 0xb09: 0x47
Address 0xb0a: 0xce
Address 0xb0b: 0xb3
Address 0xb0c: 0x78
Address 0xb0d: 0x80
Address 0xb0e: 0xd7
Address 0xb0f: 0x53
Address 0xb10: 0x8b
Address 0xb11: 0xee
Address 0xb12: 0xfa
Address 0xb13: 0x8c
Address 0xb14: 0x64
Address 0xb15: 0x1c
Address 0xb16: 0x24
Address 0xb17: 0x36
Address 0xb18: 0x3a
Address 0xb19: 0x11
Address 0xb1a: 0x86
Address 0xb1b: 0x2d
Address 0xb1c: 0x93
Address 0xb1d: 0x59
Address 0xb1e: 0xa3
Address 0xb1f: 0xaa
Address 0xb20: 0xa9
Address 0xb21: 0xeb
Address 0xb22: 0xf5
Address 0xb23: 0x90
Address 0xb24: 0x0d
Address 0xb25: 0xb3
Address 0xb26: 0x5c
Address 0xb27: 0xf2
Address 0xb28: 0x55
Address 0xb29: 0xc1
Address 0xb2a: 0x8c
Address 0xb2b: 0xf7
Address 0xb2c: 0x44
Address 0xb2d: 0xfd
Address 0xb2e: 0x39
Address 0xb2f: 0x2e
Address 0xb30: 0xd3
Address 0xb31: 0x1c
Address 0xb32: 0xb4
Address 0xb33: 0xcf
Address 0xb34: 0xe7
Address 0xb35: 0x37
Address 0xb36: 0xaf
Address 0xb37: 0xb2
Address 0xb38: 0x2f
Address 0xb39: 0x43
Address 0xb3a: 0x4d
Address 0xb3b: 0x3b
Address 0xb3c: 0x1f
Address 0xb3d: 0x10
Address 0xb3e: 0x54
Address 0xb3f: 0xe4
Address 0xb40: 0x8c
Address 0xb41: 0xa6
Address 0xb42: 0x1b
Address 0xb43: 0xe4
Address 0xb44: 0x02
Address 0xb45: 0xd4
Address 0xb46: 0xf6
Address 0xb47: 0x44
Address 0xb48: 0x15
Address 0xb49: 0x09
Address 0xb4a: 0xe9
Address 0xb4b: 0xf1
Address 0xb4c: 0xfa
Address 0xb4d: 0x79
Address 0xb4e: 0x41
Address 0xb4f: 0xa4
Address 0xb50: 0x08
Address 0xb51: 0x18
Address 0xb52: 0x1d
Address 0xb53: 0x14
Address 0xb54: 0x6a
Address 0xb55: 0xc6
Address 0xb56: 0xc5
Address 0xb57: 0xc3
Address 0xb58: 0xa1
Address 0xb59: 0xcf
Address 0xb5a: 0xad
Address 0xb5b: 0xfa
Address 0xb5c: 0xa2
Address 0xb5d: 0xc2
Address 0xb5e: 0x8d
Address 0xb5f: 0xa9
Address 0xb60: 0x1d
Address 0xb61: 0x24
Address 0xb62: 0xf3
Address 0xb63: 0x1a
Address 0xb64: 0x4d
Address 0xb65: 0x11
Address 0xb66: 0x18
Address 0xb67: 0x8b
Address 0xb68: 0x0a
Address 0xb69: 0x01
Address 0xb6a: 0x8e
Address 0xb6b: 0x1b
Address 0xb6c: 0x85
Address 0xb6d: 0xdb
Address 0xb6e: 0x35
Address 0xb6f: 0x37
Address 0xb70: 0xb8
Address 0xb71: 0x57
Address 0xb72: 0x30
Address 0xb73: 0xde
Address 0xb74: 0xfa
Address 0xb75: 0x97
Address 0xb76: 0x50
Address 0xb77: 0x0a
Address 0xb78: 0xd1
Address 0xb79: 0x5c
Address 0xb7a: 0x76
Address 0xb7b: 0x05
Address 0xb7c: 0x6a
Address 0xb7d: 0xdf
Address 0xb7e: 0xad
Address 0xb7f: 0xd4
Address 0xb80: 0x52
Address 0xb81: 0xe6
Address 0xb82: 0xcd
Address 0xb83: 0x8b
Address 0xb84: 0x48
Address 0xb85: 0x1c
Address 0xb86: 0x34
Address 0xb87: 0x1f
Address 0xb88: 0xf0
Address 0xb89: 0x0b
Address 0xb8a: 0x52
Address 0xb8b: 0x20
Address 0xb8c: 0xc1
Address 0xb8d: 0x62
Address 0xb8e: 0xa5
Address 0xb8f: 0x3d
Address 0xb90: 0xda
Address 0xb91: 0x04
Address 0xb92: 0x04
Address 0xb93: 0x26
Address 0xb94: 0xcb
Address 0xb95: 0x17
Address 0xb96: 0x4d
Address 0xb97: 0x89
Address 0xb98: 0x70
Address 0xb99: 0x71
Address 0xb9a: 0xe4
Address 0xb9b: 0x22
Address 0xb9c: 0x78
Address 0xb9d: 0x0d
Address 0xb9e: 0x21
Address 0xb9f: 0x27
Address 0xba0: 0x48
Address 0xba1: 0xb6
Address 0xba2: 0x6e
Address 0xba3: 0x91
Address 0xba4: 0x32
Address 0xba5: 0x06
Address 0xba6: 0x7a
Address 0xba7: 0x2f
Address 0xba8: 0x26
Address 0xba9: 0x54
Address 0xbaa: 0x9b
Address 0xbab: 0xc6
Address 0xbac: 0x5c
Address 0xbad: 0x1a
Address 0xbae: 0x44
Address 0xbaf: 0x6b
Address 0xbb0: 0xb0
Address 0xbb1: 0xfd
Address 0xbb2: 0x1f
Address 0xbb3: 0xea
Address 0xbb4: 0x0b
Address 0xbb5: 0x04
Address 0xbb6: 0x47
Address 0xbb7: 0x7e
Address 0xbb8: 0x17
Address 0xbb9: 0x0a
Address 0xbba: 0x75
Address 0xbbb: 0x74
Address 0xbbc: 0x0a
Address 0xbbd: 0x7b
Address 0xbbe: 0x58
Address 0xbbf: 0x42
Address 0xbc0: 0x77
Address 0xbc1: 0x13
Address 0xbc2: 0x34
Address 0xbc3: 0x0f
Address 0xbc4: 0x4a
Address 0xbc5: 0xc3
Address 0xbc6: 0x00
Address 0xbc7: 0xad
Address 0xbc8: 0xc7
Address 0xbc9: 0xff
Address 0xbca: 0x5a
Address 0xbcb: 0x3e
Address 0xbcc: 0xc2
Address 0xbcd: 0x8a
Address 0xbce: 0x56
Address 0xbcf: 0x79
Address 0xbd0: 0x23
Address 0xbd1: 0xef
Address 0xbd2: 0x61
Address 0xbd3: 0x07
Address 0xbd4: 0x44
Address 0xbd5: 0x8b
Address 0xbd6: 0xec
Address 0xbd7: 0xa4
Address 0xbd8: 0xf8
Address 0xbd9: 0xbb
Address 0xbda: 0xe0
Address 0xbdb: 0xaf
Address 0xbdc: 0xeb
Address 0xbdd: 0xb9
Address 0xbde: 0xdf
Address 0xbdf: 0xb3
Address 0xbe0: 0x98
Address 0xbe1: 0x31
Address 0xbe2: 0x7d
Address 0xbe3: 0xc1
Address 0xbe4: 0x05
Address 0xbe5: 0x2d
Address 0xbe6: 0x1d
Address 0xbe7: 0x7e
Address 0xbe8: 0x60
Address 0xbe9: 0xaa
Address 0xbea: 0x5c
Address 0xbeb: 0x70
Address 0xbec: 0xbd
Address 0xbed: 0x15
Address 0xbee: 0x50
Address 0xbef: 0x11
Address 0xbf0: 0x1e
Address 0xbf1: 0x36
Address 0xbf2: 0xfa
Address 0xbf3: 0x90
Address 0xbf4: 0x4d
Address 0xbf5: 0xd0
Address 0xbf6: 0xb9
Address 0xbf7: 0x71
Address 0xbf8: 0x91
Address 0xbf9: 0x15
Address 0xbfa: 0xdd
Address 0xbfb: 0xe4
Address 0xbfc: 0x82
Address 0xbfd: 0xde
Address 0xbfe: 0x13
Address 0xbff: 0x07
Address 0xc00: 0xe9
Address 0xc01: 0x14
Address 0xc02: 0x12
Address 0xc03: 0x00
Address 0xc04: 0x00
Address 0xc05: 0x00
Address 0xc06: 0x00
Address 0xc07: 0x00
Address 0xc08: 0x00
Address 0xc09: 0x00
Address 0xc0a: 0x00
Address 0xc0b: 0x00
Address 0xc0c: 0x00
Address 0xc0d: 0x00
Address 0xc0e: 0x00
Address 0xc0f: 0x00
Address 0xc10: 0x00
Address 0xc11: 0x00
Address 0xc12: 0x00
Address 0xc13: 0x00
Address 0xc14: 0x00
Address 0xc15: 0x00
Address 0xc16: 0x00
Address 0xc17: 0x00
Address 0xc18: 0x00
Address 0xc19: 0x00
Address 0xc1a: 0x00
Address 0xc1b: 0x00
Address 0xc1c: 0x00
Address 0xc1d: 0x00
Address 0xc1e: 0x00
Address 0xc1f: 0x00
Address 0xc20: 0x00
Address 0xc21: 0x00
Address 0xc22: 0x00
Address 0xc23: 0x00
Address 0xc24: 0x00
Address 0xc25: 0x00
Address 0xc26: 0x00
Address 0xc27: 0x00
Address 0xc28: 0x00
Address 0xc29: 0x00
Address 0xc2a: 0x00
Address 0xc2b: 0x00
Address 0xc2c: 0x00
Address 0xc2d: 0x00
Address 0xc2e: 0x00
Address 0xc2f: 0x00
Address 0xc30: 0x00
Address 0xc31: 0x00
Address 0xc32: 0x00
Address 0xc33: 0x00
Address 0xc34: 0x00
Address 0xc35: 0x00
Address 0xc36: 0x00
Address 0xc37: 0x00
Address 0xc38: 0x00
Address 0xc39: 0x00
Address 0xc3a: 0x00
Address 0xc3b: 0x00
Address 0xc3c: 0x00
Address 0xc3d: 0x00
Address 0xc3e: 0x00
Address 0xc3f: 0x00
Address 0xc40: 0x00
Address 0xc41: 0x00
Address 0xc42: 0x00
Address 0xc43: 0x00
Address 0xc44: 0x00
Address 0xc45: 0x00
Address 0xc46: 0x00
Address 0xc47: 0x00
Address 0xc48: 0x00
Address 0xc49: 0x00
Address 0xc4a: 0x00
Address 0xc4b: 0x00
Address 0xc4c: 0x00
Address 0xc4d: 0x00
Address 0xc4e: 0x00
Address 0xc4f: 0x00
Address 0xc50: 0x00
Address 0xc51: 0x00
Address 0xc52: 0x00
Address 0xc53: 0x00
Address 0xc54: 0x00
Address 0xc55: 0x00
Address 0xc56: 0x00
Address 0xc57: 0x00
Address 0xc58: 0x00
Address 0xc59: 0x00
Address 0xc5a: 0x00
Address 0xc5b: 0x00
Address 0xc5c: 0x00
Address 0xc5d: 0x00
Address 0xc5e: 0x00
Address 0xc5f: 0x00
Address 0xc60: 0x00
Address 0xc61: 0x00
Address 0xc62: 0x00
Address 0xc63: 0x00
Address 0xc64: 0x00
Address 0xc65: 0x00
Address 0xc66: 0x00
Address 0xc67: 0x00
Address 0xc68: 0x00
Address 0xc69: 0x00
Address 0xc6a: 0x00
Address 0xc6b: 0x00
Address 0xc6c: 0x00
Address 0xc6d: 0x00
Address 0xc6e: 0x00
Address 0xc6f: 0x00
Address 0xc70: 0x00
Address 0xc71: 0x00
Address 0xc72: 0x00
Address 0xc73: 0x00
Address 0xc74: 0x00
Address 0xc75: 0x00
Address 0xc76: 0x00
Address 0xc77: 0x00
Address 0xc78: 0x00
Address 0xc79: 0x00
Address 0xc7a: 0x00
Address 0xc7b: 0x00
Address 0xc7c: 0x00
Address 0xc7d: 0x00
Address 0xc7e: 0x00
Address 0xc7f: 0x00
Address 0xc80: 0x00
Address 0xc81: 0x00
Address 0xc82: 0x00
Address 0xc83: 0x00
Address 0xc84: 0x00
Address 0xc85: 0x00
Address 0xc86: 0x00
Address 0xc87: 0x00
Address 0xc88: 0x00
Address 0xc89: 0x00
Address 0xc8a: 0x00
Address 0xc8b: 0x00
Address 0xc8c: 0x00
Address 0xc8d: 0x00
Address 0xc8e: 0x00
Address 0xc8f: 0x00
Address 0xc90: 0x00
Address 0xc91: 0x00
Address 0xc92: 0x00
Address 0xc93: 0x00
Address 0xc94: 0x00
Address 0xc95: 0x00
Address 0xc96: 0x00
Address 0xc97: 0x00
Address 0xc98: 0x00
Address 0xc99: 0x00
Address 0xc9a: 0x00
Address 0xc9b: 0x00
Address 0xc9c: 0x00
Address 0xc9d: 0x00
Address 0xc9e: 0x00
Address 0xc9f: 0x00
Address 0xca0: 0x00
Address 0xca1: 0x00
Address 0xca2: 0x00
Address 0xca3: 0x00
Address 0xca4: 0x00
Address 0xca5: 0x00
Address 0xca6: 0x00
Address 0xca7: 0x00
Address 0xca8: 0x00
Address 0xca9: 0x00
Address 0xcaa: 0x00
Address 0xcab: 0x00
Address 0xcac: 0x00
Address 0xcad: 0x00
Address 0xcae: 0x00
Address 0xcaf: 0x00
Address 0xcb0: 0x00
Address 0xcb1: 0x00
Address 0xcb2: 0x00
Address 0xcb3: 0x00
Address 0xcb4: 0x00
Address 0xcb5: 0x00
Address 0xcb6: 0x00
Address 0xcb7: 0x00
Address 0xcb8: 0x00
Address 0xcb9: 0x00
Address 0xcba: 0x00
Address 0xcbb: 0x00
Address 0xcbc: 0x00
Address 0xcbd: 0x00
Address 0xcbe: 0x00
Address 0xcbf: 0x00
Address 0xcc0: 0x00
Address 0xcc1: 0x00
Address 0xcc2: 0x00
Address 0xcc3: 0x00
Address 0xcc4: 0x00
Address 0xcc5: 0x00
Address 0xcc6: 0x00
Address 0xcc7: 0x00
Address 0xcc8: 0x00
Address 0xcc9: 0x00
Address 0xcca: 0x00
Address 0xccb: 0x00
Address 0xccc: 0x00
Address 0xccd: 0x00
Address 0xcce: 0x00
Address 0xccf: 0x00
Address 0xcd0: 0x00
Address 0xcd1: 0x00
Address 0xcd2: 0x00
Address 0xcd3: 0x00
Address 0xcd4: 0x00
Address 0xcd5: 0x00
Address 0xcd6: 0x00
Address 0xcd7: 0x00
Address 0xcd8: 0x00
Address 0xcd9: 0x00
Address 0xcda: 0x00
Address 0xcdb: 0x00
Address 0xcdc: 0x00
Address 0xcdd: 0x00
Address 0xcde: 0x00
Address 0xcdf: 0x00
Address 0xce0: 0x00
Address 0xce1: 0x00
Address 0xce2: 0x00
Address 0xce3: 0x00
Address 0xce4: 0x00
Address 0xce5: 0x00
Address 0xce6: 0x00
Address 0xce7: 0x00
Address 0xce8: 0x00
Address 0xce9: 0x00
Address 0xcea: 0x00
Address 0xceb: 0x00
Address 0xcec: 0x00
Address 0xced: 0x00
Address 0xcee: 0x00
Address 0xcef: 0x00
Address 0xcf0: 0x00
Address 0xcf1: 0x00
Address 0xcf2: 0x00
Address 0xcf3: 0x00
Address 0xcf4: 0x00
Address 0xcf5: 0x00
Address 0xcf6: 0x00
Address 0xcf7: 0x00
Address 0xcf8: 0x00
Address 0xcf9: 0x00
Address 0xcfa: 0x00
Address 0xcfb: 0x00
Address 0xcfc: 0x00
Address 0xcfd: 0x00
Address 0xcfe: 0x00
Address 0xcff: 0x00
Address 0xd00: 0x00
Address 0xd01: 0x00
Address 0xd02: 0x00
Address 0xd03: 0x00
Address 0xd04: 0x00
Address 0xd05: 0x00
Address 0xd06: 0x00
Address 0xd07: 0x00
Address 0xd08: 0x00
Address 0xd09: 0x00
Address 0xd0a: 0x00
Address 0xd0b: 0x00
Address 0xd0c: 0x00
Address 0xd0d: 0x00
Address 0xd0e: 0x00
Address 0xd0f: 0x00
Address 0xd10: 0x00
Address 0xd11: 0x00
Address 0xd12: 0x00
Address 0xd13: 0x00
Address 0xd14: 0x00
Address 0xd15: 0x00
Address 0xd16: 0x00
Address 0xd17: 0x00
Address 0xd18: 0x00
Address 0xd19: 0x00
Address 0xd1a: 0x00
Address 0xd1b: 0x00
Address 0xd1c: 0x00
Address 0xd1d: 0x00
Address 0xd1e: 0x00
Address 0xd1f: 0x00
Address 0xd20: 0x00
Address 0xd21: 0x00
Address 0xd22: 0x00
Address 0xd23: 0x00
Address 0xd24: 0x00
Address 0xd25: 0x00
Address 0xd26: 0x00
Address 0xd27: 0x00
Address 0xd28: 0x00
Address 0xd29: 0x00
Address 0xd2a: 0x00
Address 0xd2b: 0x00
Address 0xd2c: 0x00
Address 0xd2d: 0x00
Address 0xd2e: 0x00
Address 0xd2f: 0x00
Address 0xd30: 0x00
Address 0xd31: 0x00
Address 0xd32: 0x00
Address 0xd33: 0x00
Address 0xd34: 0x00
Address 0xd35: 0x00
Address 0xd36: 0x00
Address 0xd37: 0x00
Address 0xd38: 0x00
Address 0xd39: 0x00
Address 0xd3a: 0x00
Address 0xd3b: 0x00
Address 0xd3c: 0x00
Address 0xd3d: 0x00
Address 0xd3e: 0x00
Address 0xd3f: 0x00
Address 0xd40: 0x00
Address 0xd41: 0x00
Address 0xd42: 0x00
Address 0xd43: 0x00
Address 0xd44: 0x00
Address 0xd45: 0x00
Address 0xd46: 0x00
Address 0xd47: 0x00
Address 0xd48: 0x00
Address 0xd49: 0x00
Address 0xd4a: 0x00
Address 0xd4b: 0x00
Address 0xd4c: 0x00
Address 0xd4d: 0x00
Address 0xd4e: 0x00
Address 0xd4f: 0x00
Address 0xd50: 0x00
Address 0xd51: 0x00
Address 0xd52: 0x00
Address 0xd53: 0x00
Address 0xd54: 0x00
Address 0xd55: 0x00
Address 0xd56: 0x00
Address 0xd57: 0x00
Address 0xd58: 0x00
Address 0xd59: 0x00
Address 0xd5a: 0x00
Address 0xd5b: 0x00
Address 0xd5c: 0x00
Address 0xd5d: 0x00
Address 0xd5e: 0x00
Address 0xd5f: 0x00
Address 0xd60: 0x00
Address 0xd61: 0x00
Address 0xd62: 0x00
Address 0xd63: 0x00
Address 0xd64: 0x00
Address 0xd65: 0x00
Address 0xd66: 0x00
Address 0xd67: 0x00
Address 0xd68: 0x00
Address 0xd69: 0x00
Address 0xd6a: 0x00
Address 0xd6b: 0x00
Address 0xd6c: 0x00
Address 0xd6d: 0x00
Address 0xd6e: 0x00
Address 0xd6f: 0x00
Address 0xd70: 0x00
Address 0xd71: 0x00
Address 0xd72: 0x00
Address 0xd73: 0x00
Address 0xd74: 0x00
Address 0xd75: 0x00
Address 0xd76: 0x00
Address 0xd77: 0x00
Address 0xd78: 0x00
Address 0xd79: 0x00
Address 0xd7a: 0x00
Address 0xd7b: 0x00
Address 0xd7c: 0x00
Address 0xd7d: 0x00
Address 0xd7e: 0x00
Address 0xd7f: 0x00
Address 0xd80: 0x00
Address 0xd81: 0x00
Address 0xd82: 0x00
Address 0xd83: 0x00
Address 0xd84: 0x00
Address 0xd85: 0x00
Address 0xd86: 0x00
Address 0xd87: 0x00
Address 0xd88: 0x00
Address 0xd89: 0x00
Address 0xd8a: 0x00
Address 0xd8b: 0x00
Address 0xd8c: 0x00
Address 0xd8d: 0x00
Address 0xd8e: 0x00
Address 0xd8f: 0x00
Address 0xd90: 0x00
Address 0xd91: 0x00
Address 0xd92: 0x00
Address 0xd93: 0x00
Address 0xd94: 0x00
Address 0xd95: 0x00
Address 0xd96: 0x00
Address 0xd97: 0x00
Address 0xd98: 0x00
Address 0xd99: 0x00
Address 0xd9a: 0x00
Address 0xd9b: 0x00
Address 0xd9c: 0x00
Address 0xd9d: 0x00
Address 0xd9e: 0x00
Address 0xd9f: 0x00
Address 0xda0: 0x00
Address 0xda1: 0x00
Address 0xda2: 0x00
Address 0xda3: 0x00
Address 0xda4: 0x00
Address 0xda5: 0x00
Address 0xda6: 0x00
Address 0xda7: 0x00
Address 0xda8: 0x00
Address 0xda9: 0x00
Address 0xdaa: 0x00
Address 0xdab: 0x00
Address 0xdac: 0x00
Address 0xdad: 0x00
Address 0xdae: 0x00
Address 0xdaf: 0x00
Address 0xdb0: 0x00
Address 0xdb1: 0x00
Address 0xdb2: 0x00
Address 0xdb3: 0x00
Address 0xdb4: 0x00
Address 0xdb5: 0x00
Address 0xdb6: 0x00
Address 0xdb7: 0x00
Address 0xdb8: 0x00
Address 0xdb9: 0x00
Address 0xdba: 0x00
Address 0xdbb: 0x00
Address 0xdbc: 0x00
Address 0xdbd: 0x00
Address 0xdbe: 0x00
Address 0xdbf: 0x00
Address 0xdc0: 0x00
Address 0xdc1: 0x00
Address 0xdc2: 0x00
Address 0xdc3: 0x00
Address 0xdc4: 0x00
Address 0xdc5: 0x00
Address 0xdc6: 0x00
Address 0xdc7: 0x00
Address 0xdc8: 0x00
Address 0xdc9: 0x00
Address 0xdca: 0x00
Address 0xdcb: 0x00
Address 0xdcc: 0x00
Address 0xdcd: 0x00
Address 0xdce: 0x00
Address 0xdcf: 0x00
Address 0xdd0: 0x00
Address 0xdd1: 0x00
Address 0xdd2: 0x00
Address 0xdd3: 0x00
Address 0xdd4: 0x00
Address 0xdd5: 0x00
Address 0xdd6: 0x00
Address 0xdd7: 0x00
Address 0xdd8: 0x00
Address 0xdd9: 0x00
Address 0xdda: 0x00
Address 0xddb: 0x00
Address 0xddc: 0x00
Address 0xddd: 0x00
Address 0xdde: 0x00
Address 0xddf: 0x00
Address 0xde0: 0x00
Address 0xde1: 0x00
Address 0xde2: 0x00
Address 0xde3: 0x00
Address 0xde4: 0x00
Address 0xde5: 0x00
Address 0xde6: 0x00
Address 0xde7: 0x00
Address 0xde8: 0x00
Address 0xde9: 0x00
Address 0xdea: 0x00
Address 0xdeb: 0x00
Address 0xdec: 0x00
Address 0xded: 0x00
Address 0xdee: 0x00
Address 0xdef: 0x00
Address 0xdf0: 0x00
Address 0xdf1: 0x00
Address 0xdf2: 0x00
Address 0xdf3: 0x00
Address 0xdf4: 0x00
Address 0xdf5: 0x00
Address 0xdf6: 0x00
Address 0xdf7: 0x00
Address 0xdf8: 0x00
Address 0xdf9: 0x00
Address 0xdfa: 0x00
Address 0xdfb: 0x00
Address 0xdfc: 0x00
Address 0xdfd: 0x00
Address 0xdfe: 0x00
Address 0xdff: 0x00
Address 0xe00: 0x00
Address 0xe01: 0x00
Address 0xe02: 0x00
Address 0xe03: 0x00
Address 0xe04: 0x00
Address 0xe05: 0x00
Address 0xe06: 0x00
Address 0xe07: 0x00
Address 0xe08: 0x00
Address 0xe09: 0x00
Address 0xe0a: 0x00
Address 0xe0b: 0x00
Address 0xe0c: 0x00
Address 0xe0d: 0x00
Address 0xe0e: 0x00
Address 0xe0f: 0x00
Address 0xe10: 0x00
Address 0xe11: 0x00
Address 0xe12: 0x00
Address 0xe13: 0x00
Address 0xe14: 0x00
Address 0xe15: 0x00
Address 0xe16: 0x00
Address 0xe17: 0x00
Address 0xe18: 0x00
Address 0xe19: 0x00
Address 0xe1a: 0x00
Address 0xe1b: 0x00
Address 0xe1c: 0x00
Address 0xe1d: 0x00
Address 0xe1e: 0x00
Address 0xe1f: 0x00
Address 0xe20: 0x00
Address 0xe21: 0x00
Address 0xe22: 0x00
Address 0xe23: 0x00
Address 0xe24: 0x00
Address 0xe25: 0x00
Address 0xe26: 0x00
Address 0xe27: 0x00
Address 0xe28: 0x00
Address 0xe29: 0x00
Address 0xe2a: 0x00
Address 0xe2b: 0x00
Address 0xe2c: 0x00
Address 0xe2d: 0x00
Address 0xe2e: 0x00
Address 0xe2f: 0x00
Address 0xe30: 0x00
Address 0xe31: 0x00
Address 0xe32: 0x00
Address 0xe33: 0x00
Address 0xe34: 0x00
Address 0xe35: 0x00
Address 0xe36: 0x00
Address 0xe37: 0x00
Address 0xe38: 0x00
Address 0xe39: 0x00
Address 0xe3a: 0x00
Address 0xe3b: 0x00
Address 0xe3c: 0x00
Address 0xe3d: 0x00
Address 0xe3e: 0x00
Address 0xe3f: 0x00
Address 0xe40: 0x00
Address 0xe41: 0x00
Address 0xe42: 0x00
Address 0xe43: 0x00
Address 0xe44: 0x00
Address 0xe45: 0x00
Address 0xe46: 0x00
Address 0xe47: 0x00
Address 0xe48: 0x00
Address 0xe49: 0x00
Address 0xe4a: 0x00
Address 0xe4b: 0x00
Address 0xe4c: 0x00
Address 0xe4d: 0x00
Address 0xe4e: 0x00
Address 0xe4f: 0x00
Address 0xe50: 0x00
Address 0xe51: 0x00
Address 0xe52: 0x00
Address 0xe53: 0x00
Address 0xe54: 0x00
Address 0xe55: 0x00
Address 0xe56: 0x00
Address 0xe57: 0x00
Address 0xe58: 0x00
Address 0xe59: 0x00
Address 0xe5a: 0x00
Address 0xe5b: 0x00
Address 0xe5c: 0x00
Address 0xe5d: 0x00
Address 0xe5e: 0x00
Address 0xe5f: 0x00
Address 0xe60: 0x00
Address 0xe61: 0x00
Address 0xe62: 0x00
Address 0xe63: 0x00
Address 0xe64: 0x00
Address 0xe65: 0x00
Address 0xe66: 0x00
Address 0xe67: 0x00
Address 0xe68: 0x00
Address 0xe69: 0x00
Address 0xe6a: 0x00
Address 0xe6b: 0x00
Address 0xe6c: 0x00
Address 0xe6d: 0x00
Address 0xe6e: 0x00
Address 0xe6f: 0x00
Address 0xe70: 0x00
Address 0xe71: 0x00
Address 0xe72: 0x00
Address 0xe73: 0x00
Address 0xe74: 0x00
Address 0xe75: 0x00
Address 0xe76: 0x00
Address 0xe77: 0x00
Address 0xe78: 0x00
Address 0xe79: 0x00
Address 0xe7a: 0x00
Address 0xe7b: 0x00
Address 0xe7c: 0x00
Address 0xe7d: 0x00
Address 0xe7e: 0x00
Address 0xe7f: 0x00
Address 0xe80: 0x00
Address 0xe81: 0x00
Address 0xe82: 0x00
Address 0xe83: 0x00
Address 0xe84: 0x00
Address 0xe85: 0x00
Address 0xe86: 0x00
Address 0xe87: 0x00
Address 0xe88: 0x00
Address 0xe89: 0x00
Address 0xe8a: 0x00
Address 0xe8b: 0x00
Address 0xe8c: 0x00
Address 0xe8d: 0x00
Address 0xe8e: 0x00
Address 0xe8f: 0x00
Address 0xe90: 0x00
Address 0xe91: 0x00
Address 0xe92: 0x00
Address 0xe93: 0x00
Address 0xe94: 0x00
Address 0xe95: 0x00
Address 0xe96: 0x00
Address 0xe97: 0x00
Address 0xe98: 0x00
Address 0xe99: 0x00
Address 0xe9a: 0x00
Address 0xe9b: 0x00
Address 0xe9c: 0x00
Address 0xe9d: 0x00
Address 0xe9e: 0x00
Address 0xe9f: 0x00
Address 0xea0: 0x00
Address 0xea1: 0x00
Address 0xea2: 0x00
Address 0xea3: 0x00
Address 0xea4: 0x00
Address 0xea5: 0x00
Address 0xea6: 0x00
Address 0xea7: 0x00
Address 0xea8: 0x00
Address 0xea9: 0x00
Address 0xeaa: 0x00
Address 0xeab: 0x00
Address 0xeac: 0x00
Address 0xead: 0x00
Address 0xeae: 0x00
Address 0xeaf: 0x00
Address 0xeb0: 0x00
Address 0xeb1: 0x00
Address 0xeb2: 0x00
Address 0xeb3: 0x00
Address 0xeb4: 0x00
Address 0xeb5: 0x00
Address 0xeb6: 0x00
Address 0xeb7: 0x00
Address 0xeb8: 0x00
Address 0xeb9: 0x00
Address 0xeba: 0x00
Address 0xebb: 0x00
Address 0xebc: 0x00
Address 0xebd: 0x00
Address 0xebe: 0x00
Address 0xebf: 0x00
Address 0xec0: 0x00
Address 0xec1: 0x00
Address 0xec2: 0x00
Address 0xec3: 0x00
Address 0xec4: 0x00
Address 0xec5: 0x00
Address 0xec6: 0x00
Address 0xec7: 0x00
Address 0xec8: 0x00
Address 0xec9: 0x00
Address 0xeca: 0x00
Address 0xecb: 0x00
Address 0xecc: 0x00
Address 0xecd: 0x00
Address 0xece: 0x00
Address 0xecf: 0x00
Address 0xed0: 0x00
Address 0xed1: 0x00
Address 0xed2: 0x00
Address 0xed3: 0x00
Address 0xed4: 0x00
Address 0xed5: 0x00
Address 0xed6: 0x00
Address 0xed7: 0x00
Address 0xed8: 0x00
Address 0xed9: 0x00
Address 0xeda: 0x00
Address 0xedb: 0x00
Address 0xedc: 0x00
Address 0xedd: 0x00
Address 0xede: 0x00
Address 0xedf: 0x00
Address 0xee0: 0x00
Address 0xee1: 0x00
Address 0xee2: 0x00
Address 0xee3: 0x00
Address 0xee4: 0x00
Address 0xee5: 0x00
Address 0xee6: 0x00
Address 0xee7: 0x00
Address 0xee8: 0x00
Address 0xee9: 0x00
Address 0xeea: 0x00
Address 0xeeb: 0x00
Address 0xeec: 0x00
Address 0xeed: 0x00
Address 0xeee: 0x00
Address 0xeef: 0x00
Address 0xef0: 0x00
Address 0xef1: 0x00
Address 0xef2: 0x00
Address 0xef3: 0x00
Address 0xef4: 0x00
Address 0xef5: 0x00
Address 0xef6: 0x00
Address 0xef7: 0x00
Address 0xef8: 0x00
Address 0xef9: 0x00
Address 0xefa: 0x00
Address 0xefb: 0x00
Address 0xefc: 0x00
Address 0xefd: 0x00
Address 0xefe: 0x00
Address 0xeff: 0x00
Address 0xf00: 0x00
Address 0xf01: 0x00
Address 0xf02: 0x00
Address 0xf03: 0x00
Address 0xf04: 0x00
Address 0xf05: 0x00
Address 0xf06: 0x00
Address 0xf07: 0x00
Address 0xf08: 0x00
Address 0xf09: 0x00
Address 0xf0a: 0x00
Address 0xf0b: 0x00
Address 0xf0c: 0x00
Address 0xf0d: 0x00
Address 0xf0e: 0x00
Address 0xf0f: 0x00
Address 0xf10: 0x00
Address 0xf11: 0x00
Address 0xf12: 0x00
Address 0xf13: 0x00
Address 0xf14: 0x00
Address 0xf15: 0x00
Address 0xf16: 0x00
Address 0xf17: 0x00
Address 0xf18: 0x00
Address 0xf19: 0x00
Address 0xf1a: 0x00
Address 0xf1b: 0x00
Address 0xf1c: 0x00
Address 0xf1d: 0x00
Address 0xf1e: 0x00
Address 0xf1f: 0x00
Address 0xf20: 0x00
Address 0xf21: 0x00
Address 0xf22: 0x00
Address 0xf23: 0x00
Address 0xf24: 0x00
Address 0xf25: 0x00
Address 0xf26: 0x00
Address 0xf27: 0x00
Address 0xf28: 0x00
Address 0xf29: 0x00
Address 0xf2a: 0x00
Address 0xf2b: 0x00
Address 0xf2c: 0x00
Address 0xf2d: 0x00
Address 0xf2e: 0x00
Address 0xf2f: 0x00
Address 0xf30: 0x00
Address 0xf31: 0x00
Address 0xf32: 0x00
Address 0xf33: 0x00
Address 0xf34: 0x00
Address 0xf35: 0x00
Address 0xf36: 0x00
Address 0xf37: 0x00
Address 0xf38: 0x00
Address 0xf39: 0x00
Address 0xf3a: 0x00
Address 0xf3b: 0x00
Address 0xf3c: 0x00
Address 0xf3d: 0x00
Address 0xf3e: 0x00
Address 0xf3f: 0x00
Address 0xf40: 0x00
Address 0xf41: 0x00
Address 0xf42: 0x00
Address 0xf43: 0x00
Address 0xf44: 0x00
Address 0xf45: 0x00
Address 0xf46: 0x00
Address 0xf47: 0x00
Address 0xf48: 0x00
Address 0xf49: 0x00
Address 0xf4a: 0x00
Address 0xf4b: 0x00
Address 0xf4c: 0x00
Address 0xf4d: 0x00
Address 0xf4e: 0x00
Address 0xf4f: 0x00
Address 0xf50: 0x00
Address 0xf51: 0x00
Address 0xf52: 0x00
Address 0xf53: 0x00
Address 0xf54: 0x00
Address 0xf55: 0x00
Address 0xf56: 0x00
Address 0xf57: 0x00
Address 0xf58: 0x00
Address 0xf59: 0x00
Address 0xf5a: 0x00
Address 0xf5b: 0x00
Address 0xf5c: 0x00
Address 0xf5d: 0x00
Address 0xf5e: 0x00
Address 0xf5f: 0x00
Address 0xf60: 0x00
Address 0xf61: 0x00
Address 0xf62: 0x00
Address 0xf63: 0x00
Address 0xf64: 0x00
Address 0xf65: 0x00
Address 0xf66: 0x00
Address 0xf67: 0x00
Address 0xf68: 0x00
Address 0xf69: 0x00
Address 0xf6a: 0x00
Address 0xf6b: 0x00
Address 0xf6c: 0x00
Address 0xf6d: 0x00
Address 0xf6e: 0x00
Address 0xf6f: 0x00
Address 0xf70: 0x00
Address 0xf71: 0x00
Address 0xf72: 0x00
Address 0xf73: 0x00
Address 0xf74: 0x00
Address 0xf75: 0x00
Address 0xf76: 0x00
Address 0xf77: 0x00
Address 0xf78: 0x00
Address 0xf79: 0x00
Address 0xf7a: 0x00
Address 0xf7b: 0x00
Address 0xf7c: 0x00
Address 0xf7d: 0x00
Address 0xf7e: 0x00
Address 0xf7f: 0x00
Address 0xf80: 0x00
Address 0xf81: 0x00
Address 0xf82: 0x00
Address 0xf83: 0x00
Address 0xf84: 0x00
Address 0xf85: 0x00
Address 0xf86: 0x00
Address 0xf87: 0x00
Address 0xf88: 0x00
Address 0xf89: 0x00
Address 0xf8a: 0x00
Address 0xf8b: 0x00
Address 0xf8c: 0x00
Address 0xf8d: 0x00
Address 0xf8e: 0x00
Address 0xf8f: 0x00
Address 0xf90: 0x00
Address 0xf91: 0x00
Address 0xf92: 0x00
Address 0xf93: 0x00
Address 0xf94: 0x00
Address 0xf95: 0x00
Address 0xf96: 0x00
Address 0xf97: 0x00
Address 0xf98: 0x00
Address 0xf99: 0x00
Address 0xf9a: 0x00
Address 0xf9b: 0x00
Address 0xf9c: 0x00
Address 0xf9d: 0x00
Address 0xf9e: 0x00
Address 0xf9f: 0x00
Address 0xfa0: 0x00
Address 0xfa1: 0x00
Address 0xfa2: 0x00
Address 0xfa3: 0x00
Address 0xfa4: 0x00
Address 0xfa5: 0x00
Address 0xfa6: 0x00
Address 0xfa7: 0x00
Address 0xfa8: 0x00
Address 0xfa9: 0x00
Address 0xfaa: 0x00
Address 0xfab: 0x00
Address 0xfac: 0x00
Address 0xfad: 0x00
Address 0xfae: 0x00
Address 0xfaf: 0x00
Address 0xfb0: 0x00
Address 0xfb1: 0x00
Address 0xfb2: 0x00
Address 0xfb3: 0x00
Address 0xfb4: 0x00
Address 0xfb5: 0x00
Address 0xfb6: 0x00
Address 0xfb7: 0x00
Address 0xfb8: 0x00
Address 0xfb9: 0x00
Address 0xfba: 0x00
Address 0xfbb: 0x00
Address 0xfbc: 0x00
Address 0xfbd: 0x00
Address 0xfbe: 0x00
Address 0xfbf: 0x00
Address 0xfc0: 0x00
Address 0xfc1: 0x00
Address 0xfc2: 0x00
Address 0xfc3: 0x00
Address 0xfc4: 0x00
Address 0xfc5: 0x00
Address 0xfc6: 0x00
Address 0xfc7: 0x00
Address 0xfc8: 0x00
Address 0xfc9: 0x00
Address 0xfca: 0x00
Address 0xfcb: 0x00
Address 0xfcc: 0x00
Address 0xfcd: 0x00
Address 0xfce: 0x00
Address 0xfcf: 0x00
Address 0xfd0: 0x00
Address 0xfd1: 0x00
Address 0xfd2: 0x00
Address 0xfd3: 0x00
Address 0xfd4: 0x00
Address 0xfd5: 0x00
Address 0xfd6: 0x00
Address 0xfd7: 0x00
Address 0xfd8: 0x00
Address 0xfd9: 0x00
Address 0xfda: 0x00
Address 0xfdb: 0x00
Address 0xfdc: 0x00
Address 0xfdd: 0x00
Address 0xfde: 0x00
Address 0xfdf: 0x00
Address 0xfe0: 0x00
Address 0xfe1: 0x00
Address 0xfe2: 0x00
Address 0xfe3: 0x00
Address 0xfe4: 0x00
Address 0xfe5: 0x00
Address 0xfe6: 0x00
Address 0xfe7: 0x00
Address 0xfe8: 0x00
Address 0xfe9: 0x00
Address 0xfea: 0x00
Address 0xfeb: 0x00
Address 0xfec: 0x00
Address 0xfed: 0x00
Address 0xfee: 0x00
Address 0xfef: 0x00
Address 0xff0: 0x00
Address 0xff1: 0x00
Address 0xff2: 0x00
Address 0xff3: 0x00
Address 0xff4: 0x00
Address 0xff5: 0x00
Address 0xff6: 0x00
Address 0xff7: 0x00
Address 0xff8: 0x00
Address 0xff9: 0x00
Address 0xffa: 0x00
Address 0xffb: 0x00
Address 0xffc: 0x00
Address 0xffd: 0x00
Address 0xffe: 0x00
=================Create CPU=================
********************************************CPU Clk cycle #0********************************************
